date Sat May 16 15:33:28.476 2026
base hex  timestamps absolute
internal events logged
Begin Triggerblock Sat May 16 15:33:28.485 2026
 0.000000 Start of measurement
 0.000000 1  180217EFx       Rx   d 8 37 37 00 84 00 00 00 40
 0.090530 1  180117EFx       Rx   d 8 1B 02 00 7D 00 7D 00 7D
 0.091839 1  180217EFx       Rx   d 8 37 37 00 84 00 00 00 50
 0.187078 1  180117EFx       Rx   d 8 1B 02 00 7D 00 7D 00 7D
 0.191475 1  180217EFx       Rx   d 8 37 37 00 84 00 00 00 60
 0.284307 1  180117EFx       Rx   d 8 1B 02 00 7D 00 7D 00 7D
 0.291267 1  180217EFx       Rx   d 8 37 37 00 84 00 00 00 70
 0.385176 1  180117EFx       Rx   d 8 1B 02 00 7D 00 7D 00 7D
 0.391232 1  180217EFx       Rx   d 8 37 37 00 84 00 00 00 80
 0.484004 1  180117EFx       Rx   d 8 1B 02 00 7D 00 7D 00 7D
 0.491384 1  180217EFx       Rx   d 8 37 37 00 84 00 00 00 90
 0.576172 1  180117EFx       Rx   d 8 1B 02 00 7D 00 7D 00 7D
 0.591269 1  180217EFx       Rx   d 8 37 37 00 84 00 00 00 A0
 0.676778 1  180117EFx       Rx   d 8 1B 02 00 7D 00 7D 00 7D
 0.691355 1  180217EFx       Rx   d 8 37 37 00 84 00 00 00 B0
 0.784445 1  180117EFx       Rx   d 8 1B 02 00 7D 00 7D 00 7D
 0.791270 1  180217EFx       Rx   d 8 37 37 00 84 00 00 00 C0
 0.884821 1  180117EFx       Rx   d 8 1B 02 00 7D 00 7D 00 7D
 0.891222 1  180217EFx       Rx   d 8 37 37 00 84 00 00 00 D0
 0.990045 1  180117EFx       Rx   d 8 1B 02 00 7D 00 7D 00 7D
 0.990557 1  180217EFx       Rx   d 8 37 37 00 84 00 00 00 E0
 1.085566 1  180117EFx       Rx   d 8 1B 02 00 7D 00 7D 00 7D
 1.091290 1  180217EFx       Rx   d 8 37 37 00 84 00 00 00 F0
 1.182057 1  180117EFx       Rx   d 8 1B 02 00 7D 00 7D 00 7D
 1.191233 1  180217EFx       Rx   d 8 37 37 00 84 00 00 00 00
 1.290370 1  180117EFx       Rx   d 8 1B 02 00 7D 00 7D 00 7D
 1.291374 1  180217EFx       Rx   d 8 37 37 00 84 00 00 00 10
 1.389323 1  180117EFx       Rx   d 8 1B 02 00 7D 00 7D 00 7D
 1.391198 1  180217EFx       Rx   d 8 37 37 00 84 00 00 00 20
 1.490015 1  180117EFx       Rx   d 8 1B 02 00 7D 00 7D 00 7D
 1.490631 1  180217EFx       Rx   d 8 37 37 00 84 00 00 00 30
 1.580087 1  180117EFx       Rx   d 8 1B 02 00 7D 00 7D 00 7D
 1.590700 1  180217EFx       Rx   d 8 37 37 00 84 00 00 00 40
 1.682884 1  180117EFx       Rx   d 8 1B 02 00 7D 00 7D 00 7D
 1.690421 1  180217EFx       Rx   d 8 37 37 00 84 00 00 00 50
 1.787874 1  180117EFx       Rx   d 8 1B 02 00 7D 00 7D 00 7D
 1.790471 1  180217EFx       Rx   d 8 37 37 00 84 00 00 00 60
 1.883139 1  180117EFx       Rx   d 8 1B 02 00 7D 00 7D 00 7D
 1.890484 1  180217EFx       Rx   d 8 37 37 00 84 00 00 00 70
 1.989697 1  180117EFx       Rx   d 8 1B 02 00 7D 00 7D 00 7D
 1.990419 1  180217EFx       Rx   d 8 37 37 00 84 00 00 00 80
 2.082181 1  180117EFx       Rx   d 8 1B 02 00 7D 00 7D 00 7D
 2.092360 1  180217EFx       Rx   d 8 37 37 00 84 00 00 00 90
 2.189648 1  180117EFx       Rx   d 8 1B 02 00 7D 00 7D 00 7D
 2.190379 1  180217EFx       Rx   d 8 37 37 00 84 00 00 00 A0
 2.279206 1  180117EFx       Rx   d 8 1B 02 00 7D 00 7D 00 7D
 2.290740 1  180217EFx       Rx   d 8 37 37 00 84 00 00 00 B0
 2.386237 1  180117EFx       Rx   d 8 1B 02 00 7D 00 7D 00 7D
 2.390445 1  180217EFx       Rx   d 8 37 37 00 84 00 00 00 C0
 2.489709 1  180117EFx       Rx   d 8 1B 02 00 7D 00 7D 00 7D
 2.490317 1  180217EFx       Rx   d 8 37 37 00 84 00 00 00 D0
 2.585868 1  180117EFx       Rx   d 8 1B 02 00 7D 00 7D 00 7D
 2.590388 1  180217EFx       Rx   d 8 37 37 00 84 00 00 00 E0
 2.689118 1  180117EFx       Rx   d 8 1B 02 00 7D 00 7D 00 7D
 2.690104 1  180217EFx       Rx   d 8 37 37 00 84 00 00 00 F0
 2.788992 1  180117EFx       Rx   d 8 1B 02 00 7D 00 7D 00 7D
 2.789989 1  180217EFx       Rx   d 8 37 37 00 84 00 00 00 00
 2.889934 1  180117EFx       Rx   d 8 1B 02 00 7D 00 7D 00 7D
 2.889934 1  180217EFx       Rx   d 8 37 37 00 84 00 00 00 10
 2.988977 1  180117EFx       Rx   d 8 1B 02 00 7D 00 7D 00 7D
 2.989973 1  180217EFx       Rx   d 8 37 37 00 84 00 00 00 20
 3.089585 1  180117EFx       Rx   d 8 1B 02 00 7D 00 7D 00 7D
 3.089950 1  180217EFx       Rx   d 8 37 37 00 84 00 00 00 30
 3.189021 1  180117EFx       Rx   d 8 1B 02 00 7D 00 7D 00 7D
 3.189928 1  180217EFx       Rx   d 8 37 37 00 84 00 00 00 40
 3.289740 1  180117EFx       Rx   d 8 1B 02 00 7D 00 7D 00 7D
 3.289740 1  180217EFx       Rx   d 8 37 37 00 84 00 00 00 50
 3.389797 1  180117EFx       Rx   d 8 1B 02 00 7D 00 7D 00 7D
 3.389797 1  180217EFx       Rx   d 8 37 37 00 84 00 00 00 60
 3.483793 1  180117EFx       Rx   d 8 1B 02 00 7D 00 7D 00 7D
 3.490861 1  180217EFx       Rx   d 8 37 37 00 84 00 00 00 70
 3.587934 1  180117EFx       Rx   d 8 1B 02 00 7D 00 7D 00 7D
 3.590871 1  180217EFx       Rx   d 8 37 37 00 84 00 00 00 80
 3.686804 1  180117EFx       Rx   d 8 1B 02 00 7D 00 7D 00 7D
 3.691075 1  180217EFx       Rx   d 8 37 37 00 84 00 00 00 90
 3.779185 1  180117EFx       Rx   d 8 1B 02 00 7D 00 7D 00 7D
 3.791071 1  180217EFx       Rx   d 8 37 37 00 84 00 00 00 A0
 3.884598 1  180117EFx       Rx   d 8 1B 02 00 7D 00 7D 00 7D
 3.890879 1  180217EFx       Rx   d 8 37 37 00 84 00 00 00 B0
 3.985475 1  180117EFx       Rx   d 8 1B 02 00 7D 00 7D 00 7D
 3.990980 1  180217EFx       Rx   d 8 37 37 00 84 00 00 00 C0
 4.074637 1  180117EFx       Rx   d 8 1B 02 00 7D 00 7D 00 7D
 4.090812 1  180217EFx       Rx   d 8 37 37 00 84 00 00 00 D0
 4.175056 1  180117EFx       Rx   d 8 1B 02 00 7D 00 7D 00 7D
 4.191053 1  180217EFx       Rx   d 8 37 37 00 84 00 00 00 E0
 4.284657 1  180117EFx       Rx   d 8 1B 02 00 7D 00 7D 00 7D
 4.290876 1  180217EFx       Rx   d 8 37 37 00 84 00 00 00 F0
 4.384548 1  180117EFx       Rx   d 8 1B 02 00 7D 00 7D 00 7D
 4.390415 1  180217EFx       Rx   d 8 37 37 00 84 00 00 00 00
 4.487362 1  180117EFx       Rx   d 8 1B 02 00 7D 00 7D 00 7D
 4.490879 1  180217EFx       Rx   d 8 37 37 00 84 00 00 00 10
 4.574475 1  180117EFx       Rx   d 8 1B 02 00 7D 00 7D 00 7D
 4.590831 1  180217EFx       Rx   d 8 37 37 00 84 00 00 00 20
 4.688283 1  180117EFx       Rx   d 8 1B 02 00 7D 00 7D 00 7D
 4.690919 1  180217EFx       Rx   d 8 37 37 00 84 00 00 00 30
 4.775281 1  180117EFx       Rx   d 8 1B 02 00 7D 00 7D 00 7D
 4.790794 1  180217EFx       Rx   d 8 37 37 00 84 00 00 00 40
 4.879454 1  180117EFx       Rx   d 8 1B 02 00 7D 00 7D 00 7D
 4.890756 1  180217EFx       Rx   d 8 37 37 00 84 00 00 00 50
 4.983602 1  180117EFx       Rx   d 8 1B 02 00 7D 00 7D 00 7D
 4.990808 1  180217EFx       Rx   d 8 37 37 00 84 00 00 00 60
 5.089812 1  180117EFx       Rx   d 8 1B 02 00 7D 00 7D 00 7D
 5.090983 1  180217EFx       Rx   d 8 37 37 00 84 00 00 00 70
 5.189566 1  180117EFx       Rx   d 8 1B 02 00 7D 00 7D 00 7D
 5.190387 1  180217EFx       Rx   d 8 37 37 00 84 00 00 00 80
 5.280420 1  180117EFx       Rx   d 8 1B 02 00 7D 00 7D 00 7D
 5.290774 1  180217EFx       Rx   d 8 37 37 00 84 00 00 00 90
 5.384641 1  180117EFx       Rx   d 8 1B 02 00 7D 00 7D 00 7D
 5.390818 1  180217EFx       Rx   d 8 37 37 00 84 00 00 00 A0
 5.483539 1  180117EFx       Rx   d 8 1B 02 00 7D 00 7D 00 7D
 5.490777 1  180217EFx       Rx   d 8 37 37 00 84 00 00 00 B0
 5.587693 1  180117EFx       Rx   d 8 1B 02 00 7D 00 7D 00 7D
 5.590744 1  180217EFx       Rx   d 8 37 37 00 84 00 00 00 C0
 5.686584 1  180117EFx       Rx   d 8 1B 02 00 7D 00 7D 00 7D
 5.690909 1  180217EFx       Rx   d 8 37 37 00 84 00 00 00 D0
 5.783946 1  180117EFx       Rx   d 8 1B 02 00 7D 00 7D 00 7D
 5.790884 1  180217EFx       Rx   d 8 37 37 00 84 00 00 00 E0
 5.884534 1  180117EFx       Rx   d 8 1B 02 00 7D 00 7D 00 7D
 5.890855 1  180217EFx       Rx   d 8 37 37 00 84 00 00 00 F0
 5.988727 1  180117EFx       Rx   d 8 1B 02 00 7D 00 7D 00 7D
 5.991457 1  180217EFx       Rx   d 8 37 37 00 84 00 00 00 00
 6.085503 1  180117EFx       Rx   d 8 1B 02 00 7D 00 7D 00 7D
 6.090798 1  180217EFx       Rx   d 8 37 37 00 84 00 00 00 10
 6.184929 1  180117EFx       Rx   d 8 1B 02 00 7D 00 7D 00 7D
 6.190899 1  180217EFx       Rx   d 8 37 37 00 84 00 00 00 20
 6.286138 1  180117EFx       Rx   d 8 1B 02 00 7D 00 7D 00 7D
 6.290826 1  180217EFx       Rx   d 8 37 37 00 84 00 00 00 30
 6.388191 1  180117EFx       Rx   d 8 1B 02 00 7D 00 7D 00 7D
 6.391295 1  180217EFx       Rx   d 8 37 37 00 84 00 00 00 40
 6.487483 1  180117EFx       Rx   d 8 1B 02 00 7D 00 7D 00 7D
 6.490864 1  180217EFx       Rx   d 8 37 37 00 84 00 00 00 50
 6.575613 1  180117EFx       Rx   d 8 1B 02 00 7D 00 7D 00 7D
 6.591089 1  180217EFx       Rx   d 8 37 37 00 84 00 00 00 60
 6.675029 1  180117EFx       Rx   d 8 1B 02 00 7D 00 7D 00 7D
 6.691592 1  180217EFx       Rx   d 8 37 37 00 84 00 00 00 70
 6.783984 1  180117EFx       Rx   d 8 1B 02 00 7D 00 7D 00 7D
 6.790951 1  180217EFx       Rx   d 8 37 37 00 84 00 00 00 80
 6.888350 1  180117EFx       Rx   d 8 1B 02 00 7D 00 7D 00 7D
 6.891304 1  180217EFx       Rx   d 8 37 37 00 84 00 00 00 90
 6.989705 1  180117EFx       Rx   d 8 1B 02 00 7D 00 7D 00 7D
 6.990994 1  180217EFx       Rx   d 8 37 37 00 84 00 00 00 A0
 7.075580 1  180117EFx       Rx   d 8 1B 02 00 7D 00 7D 00 7D
 7.090679 1  180217EFx       Rx   d 8 37 37 00 84 00 00 00 B0
 7.174769 1  180117EFx       Rx   d 8 1B 02 00 7D 00 7D 00 7D
 7.191746 1  180217EFx       Rx   d 8 37 37 00 84 00 00 00 C0
 7.282635 1  180117EFx       Rx   d 8 1B 02 00 7D 00 7D 00 7D
 7.290918 1  180217EFx       Rx   d 8 37 37 00 84 00 00 00 D0
 7.387826 1  180117EFx       Rx   d 8 1B 02 00 7D 00 7D 00 7D
 7.390891 1  180217EFx       Rx   d 8 37 37 00 84 00 00 00 E0
 7.489107 1  180117EFx       Rx   d 8 1B 02 00 7D 00 7D 00 7D
 7.491061 1  180217EFx       Rx   d 8 37 37 00 84 00 00 00 F0
 7.589574 1  180117EFx       Rx   d 8 1B 02 00 7D 00 7D 00 7D
 7.590769 1  180217EFx       Rx   d 8 37 37 00 84 00 00 00 00
 7.675540 1  180117EFx       Rx   d 8 1B 02 00 7D 00 7D 00 7D
 7.690984 1  180217EFx       Rx   d 8 37 37 00 84 00 00 00 10
 7.784660 1  180117EFx       Rx   d 8 1B 02 00 7D 00 7D 00 7D
 7.790844 1  180217EFx       Rx   d 8 37 37 00 84 00 00 00 20
 7.888040 1  180117EFx       Rx   d 8 1B 02 00 7D 00 7D 00 7D
 7.890830 1  180217EFx       Rx   d 8 37 37 00 84 00 00 00 30
 7.989080 1  180117EFx       Rx   d 8 1B 02 00 7D 00 7D 00 7D
 7.991284 1  180217EFx       Rx   d 8 37 37 00 84 00 00 00 40
 8.075490 1  180117EFx       Rx   d 8 1B 02 00 7D 00 7D 00 7D
 8.090886 1  180217EFx       Rx   d 8 37 37 00 84 00 00 00 50
 8.189510 1  180117EFx       Rx   d 8 1B 02 00 7D 00 7D 00 7D
 8.190944 1  180217EFx       Rx   d 8 37 37 00 84 00 00 00 60
 8.284583 1  180117EFx       Rx   d 8 1B 02 00 7D 00 7D 00 7D
 8.290798 1  180217EFx       Rx   d 8 37 37 00 84 00 00 00 70
 8.389320 1  180117EFx       Rx   d 8 1B 02 00 7D 00 7D 00 7D
 8.391253 1  180217EFx       Rx   d 8 37 37 00 84 00 00 00 80
 8.483960 1  180117EFx       Rx   d 8 1B 02 00 7D 00 7D 00 7D
 8.490625 1  180217EFx       Rx   d 8 37 37 00 84 00 00 00 90
 8.575314 1  180117EFx       Rx   d 8 1B 02 00 7D 00 7D 00 7D
 8.590742 1  180217EFx       Rx   d 8 37 37 00 84 00 00 00 A0
 8.674934 1  180117EFx       Rx   d 8 1B 02 00 7D 00 7D 00 7D
 8.690866 1  180217EFx       Rx   d 8 37 37 00 84 00 00 00 B0
 8.783751 1  180117EFx       Rx   d 8 1B 02 00 7D 00 7D 00 7D
 8.790715 1  180217EFx       Rx   d 8 37 37 00 84 00 00 00 C0
 8.889865 1  180117EFx       Rx   d 8 1B 02 00 7D 00 7D 00 7D
 8.891879 1  180217EFx       Rx   d 8 37 37 00 84 00 00 00 D0
 8.989281 1  180117EFx       Rx   d 8 1B 02 00 7D 00 7D 00 7D
 8.990549 1  180217EFx       Rx   d 8 37 37 00 84 00 00 00 E0
 9.075395 1  180117EFx       Rx   d 8 1B 02 00 7D 00 7D 00 7D
 9.090763 1  180217EFx       Rx   d 8 37 37 00 84 00 00 00 F0
 9.174742 1  180117EFx       Rx   d 8 1B 02 00 7D 00 7D 00 7D
 9.192319 1  180217EFx       Rx   d 8 37 37 00 84 00 00 00 00
 9.278142 1  180117EFx       Rx   d 8 1B 02 00 7D 00 7D 00 7D
 9.290880 1  180217EFx       Rx   d 8 37 37 00 84 00 00 00 10
 9.376456 1  180117EFx       Rx   d 8 1B 02 00 7D 00 7D 00 7D
 9.390625 1  180217EFx       Rx   d 8 37 37 00 84 00 00 00 20
 9.487093 1  180117EFx       Rx   d 8 1B 02 00 7D 00 7D 00 7D
 9.491685 1  180217EFx       Rx   d 8 37 37 00 84 00 00 00 30
 9.589374 1  180117EFx       Rx   d 8 1B 02 00 7D 00 7D 00 7D
 9.590636 1  180217EFx       Rx   d 8 37 37 00 84 00 00 00 40
 9.688805 1  180117EFx       Rx   d 8 1B 02 00 7D 00 7D 00 7D
 9.691032 1  180217EFx       Rx   d 8 37 37 00 84 00 00 00 50
 9.783550 1  180117EFx       Rx   d 8 1B 02 00 7D 00 7D 00 7D
 9.790593 1  180217EFx       Rx   d 8 37 37 00 84 00 00 00 60
 9.887799 1  180117EFx       Rx   d 8 1B 02 00 7D 00 7D 00 7D
 9.890535 1  180217EFx       Rx   d 8 37 37 00 84 00 00 00 70
 9.974358 1  180117EFx       Rx   d 8 1B 02 00 7D 00 7D 00 7D
 9.991479 1  180217EFx       Rx   d 8 37 37 00 84 00 00 00 80
 10.076735 1  180117EFx       Rx   d 8 1B 02 00 7D 00 7D 00 7D
 10.090773 1  180217EFx       Rx   d 8 37 37 00 84 00 00 00 90
 10.175412 1  180117EFx       Rx   d 8 1B 02 00 7D 00 7D 00 7D
 10.190661 1  180217EFx       Rx   d 8 37 37 00 84 00 00 00 A0
 10.283007 1  180117EFx       Rx   d 8 1B 02 00 7D 00 7D 00 7D
 10.290532 1  180217EFx       Rx   d 8 37 37 00 84 00 00 00 B0
 10.384639 1  180117EFx       Rx   d 8 1B 02 00 7D 00 7D 00 7D
 10.390493 1  180217EFx       Rx   d 8 37 37 00 84 00 00 00 C0
 10.489106 1  180117EFx       Rx   d 8 1B 02 00 7D 00 7D 00 7D
 10.490573 1  180217EFx       Rx   d 8 37 37 00 84 00 00 00 D0
 10.576384 1  180117EFx       Rx   d 8 1B 02 00 7D 00 7D 00 7D
 10.590544 1  180217EFx       Rx   d 8 37 37 00 84 00 00 00 E0
 10.681897 1  180117EFx       Rx   d 8 1B 02 00 7D 00 7D 00 7D
 10.690644 1  180217EFx       Rx   d 8 37 37 00 84 00 00 00 F0
 10.783532 1  180117EFx       Rx   d 8 1B 02 00 7D 00 7D 00 7D
 10.790440 1  180217EFx       Rx   d 8 37 37 00 84 00 00 00 00
 10.887619 1  180117EFx       Rx   d 8 1B 02 00 7D 00 7D 00 7D
 10.891405 1  180217EFx       Rx   d 8 37 37 00 84 00 00 00 10
 10.985657 1  180117EFx       Rx   d 8 1B 02 00 7D 00 7D 00 7D
 10.990701 1  180217EFx       Rx   d 8 37 37 00 84 00 00 00 20
 11.085756 1  180117EFx       Rx   d 8 1B 02 00 7D 00 7D 00 7D
 11.090470 1  180217EFx       Rx   d 8 37 37 00 84 00 00 00 30
 11.180116 1  180117EFx       Rx   d 8 1B 02 00 7D 00 7D 00 7D
 11.190529 1  180217EFx       Rx   d 8 37 37 00 84 00 00 00 40
 11.285541 1  180117EFx       Rx   d 8 1B 02 00 7D 00 7D 00 7D
 11.291119 1  180217EFx       Rx   d 8 37 37 00 84 00 00 00 50
 11.386285 1  180117EFx       Rx   d 8 1B 02 00 7D 00 7D 00 7D
 11.390384 1  180217EFx       Rx   d 8 37 37 00 84 00 00 00 60
 11.474328 1  180117EFx       Rx   d 8 1B 02 00 7D 00 7D 00 7D
 11.491348 1  180217EFx       Rx   d 8 37 37 00 84 00 00 00 70
 11.575081 1  180117EFx       Rx   d 8 1B 02 00 7D 00 7D 00 7D
 11.590411 1  180217EFx       Rx   d 8 37 37 00 84 00 00 00 80
 11.674797 1  180117EFx       Rx   d 8 1B 02 00 7D 00 7D 00 7D
 11.690368 1  180217EFx       Rx   d 8 37 37 00 84 00 00 00 90
 11.780337 1  180117EFx       Rx   d 8 1B 02 00 7D 00 7D 00 7D
 11.790389 1  180217EFx       Rx   d 8 37 37 00 84 00 00 00 A0
 11.877204 1  180117EFx       Rx   d 8 1B 02 00 7D 00 7D 00 7D
 11.890317 1  180217EFx       Rx   d 8 37 37 00 84 00 00 00 B0
 11.986499 1  180117EFx       Rx   d 8 1B 02 00 7D 00 7D 00 7D
 11.990412 1  180217EFx       Rx   d 8 37 37 00 84 00 00 00 C0
 12.079216 1  180117EFx       Rx   d 8 1B 02 00 7D 00 7D 00 7D
 12.091475 1  180217EFx       Rx   d 8 37 37 00 84 00 00 00 D0
 12.174428 1  180117EFx       Rx   d 8 1B 02 00 7D 00 7D 00 7D
 12.190551 1  180217EFx       Rx   d 8 37 37 00 84 00 00 00 E0
 12.281861 1  180117EFx       Rx   d 8 1B 02 00 7D 00 7D 00 7D
 12.290273 1  180217EFx       Rx   d 8 37 37 00 84 00 00 00 F0
 12.387316 1  180117EFx       Rx   d 8 1B 02 00 7D 00 7D 00 7D
 12.390808 1  180217EFx       Rx   d 8 37 37 00 84 00 00 00 00
 12.475331 1  180117EFx       Rx   d 8 1B 02 00 7D 00 7D 00 7D
 12.490782 1  180217EFx       Rx   d 8 37 37 00 84 00 00 00 10
 12.575011 1  180117EFx       Rx   d 8 1B 02 00 7D 00 7D 00 7D
 12.590339 1  180217EFx       Rx   d 8 37 37 00 84 00 00 00 20
 12.674040 1  180117EFx       Rx   d 8 1B 02 00 7D 00 7D 00 7D
 12.690416 1  180217EFx       Rx   d 8 37 37 00 84 00 00 00 30
 12.788229 1  180117EFx       Rx   d 8 1B 02 00 7D 00 7D 00 7D
 12.789229 1  180217EFx       Rx   d 8 37 37 00 84 00 00 00 40
 12.888426 1  180117EFx       Rx   d 8 1B 02 00 7D 00 7D 00 7D
 12.890114 1  180217EFx       Rx   d 8 37 37 00 84 00 00 00 50
 12.989001 1  180117EFx       Rx   d 8 1B 02 00 7D 00 7D 00 7D
 12.990226 1  180217EFx       Rx   d 8 37 37 00 84 00 00 00 60
 13.077018 1  180117EFx       Rx   d 8 1B 02 00 7D 00 7D 00 7D
 13.090175 1  180217EFx       Rx   d 8 37 37 00 84 00 00 00 70
 13.174335 1  180117EFx       Rx   d 8 1B 02 00 7D 00 7D 00 7D
 13.190416 1  180217EFx       Rx   d 8 37 37 00 84 00 00 00 80
 13.281219 1  180117EFx       Rx   d 8 1B 02 00 7D 00 7D 00 7D
 13.290140 1  180217EFx       Rx   d 8 37 37 00 84 00 00 00 90
 13.388879 1  180117EFx       Rx   d 8 1B 02 00 7D 00 7D 00 7D
 13.390672 1  180217EFx       Rx   d 8 37 37 00 84 00 00 00 A0
 13.488741 1  180117EFx       Rx   d 8 1B 02 00 7D 00 7D 00 7D
 13.491146 1  180217EFx       Rx   d 8 37 37 00 84 00 00 00 B0
 13.575894 1  180117EFx       Rx   d 8 1B 02 00 7D 00 7D 00 7D
 13.590217 1  180217EFx       Rx   d 8 37 37 00 84 00 00 00 C0
 13.678777 1  180117EFx       Rx   d 8 1B 02 00 7D 00 7D 00 7D
 13.690826 1  180217EFx       Rx   d 8 37 37 00 84 00 00 00 D0
 13.783176 1  180117EFx       Rx   d 8 1B 02 00 7D 00 7D 00 7D
 13.790082 1  180217EFx       Rx   d 8 37 37 00 84 00 00 00 E0
 13.887379 1  180117EFx       Rx   d 8 1B 02 00 7D 00 7D 00 7D
 13.890042 1  180217EFx       Rx   d 8 37 37 00 84 00 00 00 F0
 13.977653 1  180117EFx       Rx   d 8 1B 02 00 7D 00 7D 00 7D
 13.991177 1  180217EFx       Rx   d 8 37 37 00 84 00 00 00 00
 14.088415 1  180117EFx       Rx   d 8 1B 02 00 7D 00 7D 00 7D
 14.090425 1  180217EFx       Rx   d 8 37 37 00 84 00 00 00 10
 14.174183 1  180117EFx       Rx   d 8 1B 02 00 7D 00 7D 00 7D
 14.190214 1  180217EFx       Rx   d 8 37 37 00 84 00 00 00 20
 14.283140 1  180117EFx       Rx   d 8 1B 02 00 7D 00 7D 00 7D
 14.290004 1  180217EFx       Rx   d 8 37 37 00 84 00 00 00 30
 14.387228 1  180117EFx       Rx   d 8 1B 02 82 7C 32 7D 00 7D
 14.390408 1  180217EFx       Rx   d 8 37 32 01 94 00 00 00 40
 14.488949 1  180117EFx       Rx   d 8 1B 02 BC 7C 4E 7F 24 7E
 14.491835 1  180217EFx       Rx   d 8 37 32 0D 94 00 00 00 50
 14.574775 1  180117EFx       Rx   d 8 1B 02 B5 7C 04 7E C6 7F
 14.590031 1  180217EFx       Rx   d 8 37 32 06 94 00 00 00 60
 14.676017 1  180117EFx       Rx   d 8 1C 02 84 7C 1A 7D EB 7F
 14.690500 1  180217EFx       Rx   d 8 37 32 00 84 00 00 00 70
 14.783085 1  180117EFx       Rx   d 8 1C 02 7F 7C 26 7D 6A 7F
 14.790003 1  180217EFx       Rx   d 8 37 32 00 84 00 00 00 80
 14.883356 1  180117EFx       Rx   d 8 1C 02 8B 7C 19 7D FD 7E
 14.890121 1  180217EFx       Rx   d 8 37 32 00 84 00 00 00 90
 14.988288 1  180117EFx       Rx   d 8 1C 02 82 7C 0A 7D A1 7E
 14.989784 1  180217EFx       Rx   d 8 37 32 00 84 00 00 00 A0
 15.088703 1  180117EFx       Rx   d 8 1C 02 83 7C FD 7C 4D 7E
 15.090080 1  180217EFx       Rx   d 8 37 32 00 84 00 00 00 B0
 15.174081 1  180117EFx       Rx   d 8 1C 02 7E 7C 1B 7D 04 7E
 15.190032 1  180217EFx       Rx   d 8 37 32 00 84 00 00 00 C0
 15.285982 1  180117EFx       Rx   d 8 1C 02 80 7C 09 7D C9 7D
 15.289878 1  180217EFx       Rx   d 8 37 32 00 84 00 00 00 D0
 15.387984 1  180117EFx       Rx   d 8 1C 02 7D 7C 0C 7D 9D 7D
 15.390598 1  180217EFx       Rx   d 8 37 32 00 84 00 00 00 E0
 15.488804 1  180117EFx       Rx   d 8 1C 02 80 7C F9 7C 6D 7D
 15.490063 1  180217EFx       Rx   d 8 37 32 00 84 00 00 00 F0
 15.588568 1  180117EFx       Rx   d 8 1C 02 80 7C F7 7C 6D 7D
 15.589844 1  180217EFx       Rx   d 8 37 32 00 84 00 00 00 00
 15.678886 1  180117EFx       Rx   d 8 1B 02 00 7D 00 7D 00 7D
 15.689924 1  180217EFx       Rx   d 8 37 32 00 84 00 00 00 10
 15.782991 1  180117EFx       Rx   d 8 1B 02 00 7D 00 7D 00 7D
 15.789844 1  180217EFx       Rx   d 8 37 37 00 84 00 00 00 20
 15.887161 1  180117EFx       Rx   d 8 1B 02 00 7D 00 7D 00 7D
 15.889844 1  180217EFx       Rx   d 8 37 37 00 84 00 00 00 30
 15.988096 1  180117EFx       Rx   d 8 1B 02 00 7D 00 7D 00 7D
 15.990516 1  180217EFx       Rx   d 8 37 37 00 84 00 00 00 40
 16.085556 1  180117EFx       Rx   d 8 1B 02 00 7D 00 7D 00 7D
 16.089848 1  180217EFx       Rx   d 8 37 37 00 84 00 00 00 50
 16.177565 1  180117EFx       Rx   d 8 1B 02 00 7D 00 7D 00 7D
 16.189783 1  180217EFx       Rx   d 8 37 37 00 84 00 00 00 60
 16.283441 1  180117EFx       Rx   d 8 1B 02 00 7D 00 7D 00 7D
 16.289817 1  180217EFx       Rx   d 8 37 37 00 84 00 00 00 70
 16.387856 1  180117EFx       Rx   d 8 1B 02 00 7D 00 7D 00 7D
 16.389515 1  180217EFx       Rx   d 8 37 37 00 84 00 00 00 80
 16.488422 1  180117EFx       Rx   d 8 1B 02 00 7D 00 7D 00 7D
 16.489825 1  180217EFx       Rx   d 8 37 37 00 84 00 00 00 90
 16.588660 1  180117EFx       Rx   d 8 1B 02 00 7D 00 7D 00 7D
 16.589877 1  180217EFx       Rx   d 8 37 37 00 84 00 00 00 A0
 16.673580 1  180117EFx       Rx   d 8 1B 02 00 7D 00 7D 00 7D
 16.689907 1  180217EFx       Rx   d 8 37 37 00 84 00 00 00 B0
 16.779729 1  180117EFx       Rx   d 8 1B 02 00 7D 00 7D 00 7D
 16.789787 1  180217EFx       Rx   d 8 37 37 00 84 00 00 00 C0
 16.888307 1  180117EFx       Rx   d 8 1B 02 00 7D 00 7D 00 7D
 16.889499 1  180217EFx       Rx   d 8 37 37 00 84 00 00 00 D0
 16.988325 1  180117EFx       Rx   d 8 1B 02 00 7D 00 7D 00 7D
 16.989561 1  180217EFx       Rx   d 8 37 37 00 84 00 00 00 E0
 17.074933 1  180117EFx       Rx   d 8 1B 02 00 7D 00 7D 00 7D
 17.089781 1  180217EFx       Rx   d 8 37 37 00 84 00 00 00 F0
 17.186185 1  180117EFx       Rx   d 8 1B 02 00 7D 00 7D 00 7D
 17.189828 1  180217EFx       Rx   d 8 37 37 00 84 00 00 00 00
 17.280043 1  180117EFx       Rx   d 8 1B 02 00 7D 00 7D 00 7D
 17.289682 1  180217EFx       Rx   d 8 37 37 00 84 00 00 00 10
 17.387761 1  180117EFx       Rx   d 8 1B 02 00 7D 00 7D 00 7D
 17.389339 1  180217EFx       Rx   d 8 37 37 00 84 00 00 00 20
 17.487967 1  180117EFx       Rx   d 8 1B 02 00 7D 00 7D 00 7D
 17.490300 1  180217EFx       Rx   d 8 37 37 00 84 00 00 00 30
 17.574858 1  180117EFx       Rx   d 8 1B 02 00 7D 00 7D 00 7D
 17.590607 1  180217EFx       Rx   d 8 37 37 00 84 00 00 00 40
 17.673475 1  180117EFx       Rx   d 8 1B 02 00 7D 00 7D 00 7D
 17.690059 1  180217EFx       Rx   d 8 37 37 00 84 00 00 00 50
 17.783540 1  180117EFx       Rx   d 8 1B 02 00 7D 00 7D 00 7D
 17.789721 1  180217EFx       Rx   d 8 37 37 00 84 00 00 00 60
 17.887690 1  180117EFx       Rx   d 8 1B 02 00 7D 00 7D 00 7D
 17.889278 1  180217EFx       Rx   d 8 37 37 00 84 00 00 00 70
 17.977778 1  180117EFx       Rx   d 8 1B 02 00 7D 00 7D 00 7D
 17.990628 1  180217EFx       Rx   d 8 37 37 00 84 00 00 00 80
 18.074191 1  180117EFx       Rx   d 8 1B 02 00 7D 00 7D 00 7D
 18.089700 1  180217EFx       Rx   d 8 37 37 00 84 00 00 00 90
 18.175462 1  180117EFx       Rx   d 8 1B 02 00 7D 00 7D 00 7D
 18.189690 1  180217EFx       Rx   d 8 37 37 00 84 00 00 00 A0
 18.276828 1  180117EFx       Rx   d 8 1B 02 00 7D 00 7D 00 7D
 18.290194 1  180217EFx       Rx   d 8 37 37 00 84 00 00 00 B0
 18.386848 1  180117EFx       Rx   d 8 1B 02 00 7D 00 7D 00 7D
 18.389533 1  180217EFx       Rx   d 8 37 37 00 84 00 00 00 C0
 18.487973 1  180117EFx       Rx   d 8 1C 02 88 7C 8A 7E 00 7D
 18.489442 1  180217EFx       Rx   d 8 37 32 08 94 00 00 00 D0
 18.575835 1  180117EFx       Rx   d 8 1C 02 96 7C EA 7D A1 7E
 18.589491 1  180217EFx       Rx   d 8 37 32 09 94 00 00 00 E0
 18.674007 1  180117EFx       Rx   d 8 1B 02 C0 7C 55 7E BF 7F
 18.689661 1  180217EFx       Rx   d 8 37 32 0A 94 00 00 00 F0
 18.782652 1  180117EFx       Rx   d 8 1A 02 BC 7C 7A 7E 59 81
 18.789495 1  180217EFx       Rx   d 8 37 32 0A 94 00 00 00 00
 18.886800 1  180117EFx       Rx   d 8 19 02 BC 7C 21 7E C3 82
 18.889452 1  180217EFx       Rx   d 8 37 32 0A 94 00 00 00 10
 18.988169 1  180117EFx       Rx   d 8 19 02 C9 7C 27 7E F0 83
 18.990940 1  180217EFx       Rx   d 8 37 32 0A 94 00 00 00 20
 19.083387 1  180117EFx       Rx   d 8 19 02 A0 7C 6D 7D D6 84
 19.090225 1  180217EFx       Rx   d 8 37 32 05 94 00 00 00 30
 19.178156 1  180117EFx       Rx   d 8 1B 02 87 7C 37 7D 94 84
 19.189408 1  180217EFx       Rx   d 8 37 32 00 84 00 00 00 40
 19.283807 1  180117EFx       Rx   d 8 1C 02 7A 7C 28 7D EC 83
 19.289464 1  180217EFx       Rx   d 8 37 32 00 84 00 00 00 50
 19.386767 1  180117EFx       Rx   d 8 1C 02 81 7C DF 7C 4E 83
 19.389415 1  180217EFx       Rx   d 8 37 32 00 84 00 00 00 60
 19.488430 1  180117EFx       Rx   d 8 1C 02 85 7C 1F 7D BC 82
 19.489460 1  180217EFx       Rx   d 8 37 32 00 84 00 00 00 70
 19.574921 1  180117EFx       Rx   d 8 1C 02 81 7C 2A 7D 3C 82
 19.589373 1  180217EFx       Rx   d 8 37 32 00 84 00 00 00 80
 19.683634 1  180117EFx       Rx   d 8 1C 02 82 7C 16 7D B4 81
 19.689892 1  180217EFx       Rx   d 8 37 32 00 84 00 00 00 90
 19.776183 1  180117EFx       Rx   d 8 1C 02 83 7C 28 7D 34 81
 19.789344 1  180217EFx       Rx   d 8 37 32 00 84 00 00 00 A0
 19.886699 1  180117EFx       Rx   d 8 1C 02 81 7C 22 7D BF 80
 19.889333 1  180217EFx       Rx   d 8 37 32 00 84 00 00 00 B0
 19.973405 1  180117EFx       Rx   d 8 1C 02 82 7C 20 7D 46 80
 19.989651 1  180217EFx       Rx   d 8 37 32 00 84 00 00 00 C0
 20.076997 1  180117EFx       Rx   d 8 1C 02 86 7C 14 7D DC 7F
 20.089510 1  180217EFx       Rx   d 8 37 32 00 84 00 00 00 D0
 20.179518 1  180117EFx       Rx   d 8 1C 02 81 7C 1D 7D 75 7F
 20.188657 1  180217EFx       Rx   d 8 37 32 00 84 00 00 00 E0
 20.282157 1  180117EFx       Rx   d 8 1C 02 84 7C 21 7D 13 7F
 20.288532 1  180217EFx       Rx   d 8 37 32 00 84 00 00 00 F0
 20.386518 1  180117EFx       Rx   d 8 1C 02 84 7C 17 7D B7 7E
 20.388893 1  180217EFx       Rx   d 8 37 32 00 84 00 00 00 00
 20.487643 1  180117EFx       Rx   d 8 1C 02 80 7C 13 7D 66 7E
 20.489994 1  180217EFx       Rx   d 8 37 32 00 84 00 00 00 10
 20.574101 1  180117EFx       Rx   d 8 1C 02 80 7C 18 7D 1D 7E
 20.589255 1  180217EFx       Rx   d 8 37 32 00 84 00 00 00 20
 20.687561 1  180117EFx       Rx   d 8 1C 02 81 7C 12 7D E3 7D
 20.689072 1  180217EFx       Rx   d 8 37 32 00 84 00 00 00 30
 20.783198 1  180117EFx       Rx   d 8 1C 02 80 7C 0D 7D AC 7D
 20.789245 1  180217EFx       Rx   d 8 37 32 00 84 00 00 00 40
 20.886572 1  180117EFx       Rx   d 8 1C 02 7D 7C FD 7C 9D 7D
 20.889236 1  180217EFx       Rx   d 8 37 32 00 84 00 00 00 50
 20.988077 1  180117EFx       Rx   d 8 1B 02 00 7D 00 7D 00 7D
 20.989466 1  180217EFx       Rx   d 8 37 32 00 84 00 00 00 60
 21.085698 1  180117EFx       Rx   d 8 1B 02 00 7D 00 7D 00 7D
 21.090218 1  180217EFx       Rx   d 8 37 37 00 84 00 00 00 70
 21.180552 1  180117EFx       Rx   d 8 1B 02 00 7D 00 7D 00 7D
 21.189204 1  180217EFx       Rx   d 8 37 37 00 84 00 00 00 80
 21.282354 1  180117EFx       Rx   d 8 1B 02 00 7D 00 7D 00 7D
 21.289204 1  180217EFx       Rx   d 8 37 37 00 84 00 00 00 90
 21.387318 1  180117EFx       Rx   d 8 1B 02 00 7D 00 7D 00 7D
 21.388808 1  180217EFx       Rx   d 8 37 37 00 84 00 00 00 A0
 21.487545 1  180117EFx       Rx   d 8 1B 02 00 7D 00 7D 00 7D
 21.489801 1  180217EFx       Rx   d 8 37 37 00 84 00 00 00 B0
 21.573991 1  180117EFx       Rx   d 8 1B 02 00 7D 00 7D 00 7D
 21.589142 1  180217EFx       Rx   d 8 37 37 00 84 00 00 00 C0
 21.674633 1  180117EFx       Rx   d 8 1B 02 00 7D 00 7D 00 7D
 21.689291 1  180217EFx       Rx   d 8 37 37 00 84 00 00 00 D0
 21.783104 1  180117EFx       Rx   d 8 1B 02 00 7D 00 7D 00 7D
 21.789158 1  180217EFx       Rx   d 8 37 37 00 84 00 00 00 E0
 21.881688 1  180117EFx       Rx   d 8 1B 02 00 7D 00 7D 00 7D
 21.889257 1  180217EFx       Rx   d 8 37 37 00 84 00 00 00 F0
 21.987851 1  180117EFx       Rx   d 8 1B 02 00 7D 00 7D 00 7D
 21.990113 1  180217EFx       Rx   d 8 37 37 00 84 00 00 00 00
 22.073910 1  180117EFx       Rx   d 8 1B 02 00 7D 00 7D 00 7D
 22.089064 1  180217EFx       Rx   d 8 37 37 00 84 00 00 00 10
 22.173315 1  180117EFx       Rx   d 8 1B 02 00 7D 00 7D 00 7D
 22.190181 1  180217EFx       Rx   d 8 37 37 00 84 00 00 00 20
 22.283316 1  180117EFx       Rx   d 8 1B 02 00 7D 00 7D 00 7D
 22.289187 1  180217EFx       Rx   d 8 37 37 00 84 00 00 00 30
 22.387096 1  180117EFx       Rx   d 8 1C 02 80 7C 72 7D 00 7D
 22.388855 1  180217EFx       Rx   d 8 37 32 04 94 00 00 00 40
 22.487643 1  180117EFx       Rx   d 8 1C 02 7E 7C 89 7D AF 7D
 22.489770 1  180217EFx       Rx   d 8 37 32 03 94 00 00 00 50
 22.574587 1  180117EFx       Rx   d 8 1C 02 8E 7C 81 7D 24 7E
 22.589083 1  180217EFx       Rx   d 8 37 32 03 94 00 00 00 60
 22.687957 1  180117EFx       Rx   d 8 1C 02 86 7C 1A 7D 2C 7E
 22.689161 1  180217EFx       Rx   d 8 37 32 01 94 00 00 00 70
 22.782186 1  180117EFx       Rx   d 8 1C 02 88 7C 33 7D 21 7E
 22.788994 1  180217EFx       Rx   d 8 37 32 01 94 00 00 00 80
 22.887028 1  180117EFx       Rx   d 8 1C 02 8B 7C 27 7E 0E 7E
 22.888713 1  180217EFx       Rx   d 8 37 32 06 94 00 00 00 90
 22.978638 1  180117EFx       Rx   d 8 12 02 CB 7D 7D 83 C7 82
 22.989966 1  180217EFx       Rx   d 8 37 32 2F 94 00 00 00 A0
 23.087656 1  180117EFx       Rx   d 8 04 02 84 7F 0C 82 4A 8B
 23.089641 1  180217EFx       Rx   d 8 37 32 50 94 00 00 00 B0
 23.178675 1  180117EFx       Rx   d 8 12 02 41 7D 1E 7E 8D 8E
 23.189004 1  180217EFx       Rx   d 8 37 32 62 94 00 00 00 C0
 23.282847 1  180117EFx       Rx   d 8 17 02 EE 7C 94 7D E1 8E
 23.288923 1  180217EFx       Rx   d 8 37 32 62 94 00 00 00 D0
 23.387009 1  180117EFx       Rx   d 8 17 02 E9 7C 7C 7D C8 8E
 23.388697 1  180217EFx       Rx   d 8 37 32 62 94 00 00 00 E0
 23.487545 1  180117EFx       Rx   d 8 17 02 F4 7C 8B 7D C0 8E
 23.489745 1  180217EFx       Rx   d 8 37 32 62 94 00 00 00 F0
 23.574435 1  180117EFx       Rx   d 8 17 02 43 7D B2 7D AE 8E
 23.588930 1  180217EFx       Rx   d 8 37 32 62 94 00 00 00 00
 23.674455 1  180117EFx       Rx   d 8 17 02 7B 7D F8 7D C0 8E
 23.689049 1  180217EFx       Rx   d 8 37 32 62 94 00 00 00 10
 23.782010 1  180117EFx       Rx   d 8 17 02 F0 7C 8C 7D AE 8E
 23.788888 1  180217EFx       Rx   d 8 37 32 62 94 00 00 00 20
 23.886226 1  180117EFx       Rx   d 8 17 02 F1 7C A6 7D AE 8E
 23.888844 1  180217EFx       Rx   d 8 37 32 62 94 00 00 00 30
 23.987437 1  180117EFx       Rx   d 8 18 02 09 7D 78 7D AE 8E
 23.989832 1  180217EFx       Rx   d 8 37 32 62 94 00 00 00 40
 24.073688 1  180117EFx       Rx   d 8 17 02 42 7D E8 7D AE 8E
 24.088891 1  180217EFx       Rx   d 8 37 32 62 94 00 00 00 50
 24.173683 1  180117EFx       Rx   d 8 17 02 EC 7C 76 7D C0 8E
 24.188843 1  180217EFx       Rx   d 8 37 32 62 94 00 00 00 60
 24.287483 1  180117EFx       Rx   d 8 18 02 C7 7C 7A 7D B2 8E
 24.289031 1  180217EFx       Rx   d 8 37 32 62 94 00 00 00 70
 24.382306 1  180117EFx       Rx   d 8 17 02 1E 7D 8F 7D C0 8E
 24.389088 1  180217EFx       Rx   d 8 37 32 3D 94 00 00 00 80
 24.473184 1  180117EFx       Rx   d 8 19 02 BC 7C 28 7D 65 8E
 24.488084 1  180217EFx       Rx   d 8 37 32 00 84 00 00 00 90
 24.580559 1  180117EFx       Rx   d 8 1A 02 BC 7C 34 7D AA 8D
 24.587716 1  180217EFx       Rx   d 8 37 32 00 84 00 00 00 A0
 24.681071 1  180117EFx       Rx   d 8 1A 02 9C 7C D7 7C 05 8D
 24.687597 1  180217EFx       Rx   d 8 37 32 00 84 00 00 00 B0
 24.776049 1  180117EFx       Rx   d 8 1A 02 84 7C 14 7D 59 8C
 24.787875 1  180217EFx       Rx   d 8 37 32 00 84 00 00 00 C0
 24.881187 1  180117EFx       Rx   d 8 1A 02 BE 7C 1C 7D A9 8B
 24.888488 1  180217EFx       Rx   d 8 37 32 00 84 00 00 00 D0
 24.981517 1  180117EFx       Rx   d 8 1A 02 A2 7C 42 7D FD 8A
 24.988501 1  180217EFx       Rx   d 8 37 32 00 84 00 00 00 E0
 25.073548 1  180117EFx       Rx   d 8 1A 02 9A 7C 18 7D 60 8A
 25.088444 1  180217EFx       Rx   d 8 37 32 00 84 00 00 00 F0
 25.187274 1  180117EFx       Rx   d 8 1B 02 A9 7C 2C 7D B7 89
 25.188273 1  180217EFx       Rx   d 8 37 32 00 84 00 00 00 00
 25.281710 1  180117EFx       Rx   d 8 1B 02 A1 7C 22 7D 21 89
 25.288390 1  180217EFx       Rx   d 8 37 32 00 84 00 00 00 10
 25.387288 1  180117EFx       Rx   d 8 1B 02 A0 7C 23 7D 79 88
 25.387985 1  180217EFx       Rx   d 8 37 32 00 84 00 00 00 20
 25.486778 1  180117EFx       Rx   d 8 1B 02 B2 7C 1A 7D C9 87
 25.487419 1  180217EFx       Rx   d 8 37 32 00 84 00 00 00 30
 25.586812 1  180117EFx       Rx   d 8 1B 02 A3 7C E6 7C 24 87
 25.587458 1  180217EFx       Rx   d 8 37 32 00 84 00 00 00 40
 25.686786 1  180117EFx       Rx   d 8 1B 02 9F 7C 25 7D 74 86
 25.687627 1  180217EFx       Rx   d 8 37 32 00 84 00 00 00 50
 25.777462 1  180117EFx       Rx   d 8 1B 02 A3 7C 15 7D CF 85
 25.789763 1  180217EFx       Rx   d 8 37 32 00 84 00 00 00 60
 25.886632 1  180117EFx       Rx   d 8 1B 02 9B 7C 23 7D 2E 85
 25.888298 1  180217EFx       Rx   d 8 37 32 00 84 00 00 00 70
 25.987263 1  180117EFx       Rx   d 8 1B 02 9D 7C 3B 7D 9C 84
 25.988584 1  180217EFx       Rx   d 8 37 32 00 84 00 00 00 80
 26.072403 1  180117EFx       Rx   d 8 1B 02 98 7C E7 7C 09 84
 26.088665 1  180217EFx       Rx   d 8 37 32 00 84 00 00 00 90
 26.187287 1  180117EFx       Rx   d 8 1B 02 9C 7C 3F 7D 85 83
 26.188727 1  180217EFx       Rx   d 8 37 32 00 84 00 00 00 A0
 26.281801 1  180117EFx       Rx   d 8 1B 02 95 7C E5 7C FE 82
 26.288583 1  180217EFx       Rx   d 8 37 32 00 84 00 00 00 B0
 26.387327 1  180117EFx       Rx   d 8 1B 02 96 7C 1A 7D 7E 82
 26.388498 1  180217EFx       Rx   d 8 37 32 00 84 00 00 00 C0
 26.487540 1  180117EFx       Rx   d 8 1B 02 96 7C 24 7D 0C 82
 26.490077 1  180217EFx       Rx   d 8 37 32 00 84 00 00 00 D0
 26.575226 1  180117EFx       Rx   d 8 1B 02 97 7C 17 7D 93 81
 26.588530 1  180217EFx       Rx   d 8 37 32 00 84 00 00 00 E0
 26.686508 1  180117EFx       Rx   d 8 1B 02 99 7C 15 7D 26 81
 26.688981 1  180217EFx       Rx   d 8 37 32 00 84 00 00 00 F0
 26.783105 1  180117EFx       Rx   d 8 1B 02 9C 7C 17 7D BB 80
 26.788493 1  180217EFx       Rx   d 8 37 32 00 84 00 00 00 00
 26.884628 1  180117EFx       Rx   d 8 1C 02 98 7C E2 7C 51 80
 26.887817 1  180217EFx       Rx   d 8 37 32 00 84 00 00 00 10
 26.985287 1  180117EFx       Rx   d 8 1C 02 9C 7C 1B 7D EE 7F
 26.988680 1  180217EFx       Rx   d 8 37 32 00 84 00 00 00 20
 27.074053 1  180117EFx       Rx   d 8 1C 02 98 7C 13 7D 93 7F
 27.088540 1  180217EFx       Rx   d 8 37 32 00 84 00 00 00 30
 27.186714 1  180117EFx       Rx   d 8 1C 02 96 7C 12 7D 3B 7F
 27.188287 1  180217EFx       Rx   d 8 37 32 00 84 00 00 00 40
 27.282418 1  180117EFx       Rx   d 8 1C 02 9A 7C EE 7C EA 7E
 27.289477 1  180217EFx       Rx   d 8 37 32 00 84 00 00 00 50
 27.385854 1  180117EFx       Rx   d 8 1C 02 98 7C 0D 7D 9D 7E
 27.388399 1  180217EFx       Rx   d 8 37 32 00 84 00 00 00 60
 27.486791 1  180117EFx       Rx   d 8 1C 02 95 7C 0D 7D 4D 7E
 27.488331 1  180217EFx       Rx   d 8 37 32 00 84 00 00 00 70
 27.573694 1  180117EFx       Rx   d 8 1C 02 9A 7C 0E 7D 0B 7E
 27.588386 1  180217EFx       Rx   d 8 37 32 00 84 00 00 00 80
 27.672515 1  180117EFx       Rx   d 8 1C 02 97 7C 10 7D D0 7D
 27.689239 1  180217EFx       Rx   d 8 37 32 00 84 00 00 00 90
 27.787031 1  180117EFx       Rx   d 8 1C 02 94 7C 0D 7D AC 7D
 27.788114 1  180217EFx       Rx   d 8 37 32 00 84 00 00 00 A0
 27.885165 1  180117EFx       Rx   d 8 1C 02 99 7C F6 7C 87 7D
 27.888065 1  180217EFx       Rx   d 8 37 32 00 84 00 00 00 B0
 27.987254 1  180117EFx       Rx   d 8 1C 02 98 7C F3 7C 87 7D
 27.988408 1  180217EFx       Rx   d 8 37 32 00 84 00 00 00 C0
 28.073273 1  180117EFx       Rx   d 8 1B 02 00 7D 00 7D 00 7D
 28.088439 1  180217EFx       Rx   d 8 37 37 00 84 00 00 00 D0
 28.173283 1  180117EFx       Rx   d 8 1B 02 00 7D 00 7D 00 7D
 28.188360 1  180217EFx       Rx   d 8 37 37 00 84 00 00 00 E0
 28.282400 1  180117EFx       Rx   d 8 1B 02 00 7D 00 7D 00 7D
 28.288521 1  180217EFx       Rx   d 8 37 37 00 84 00 00 00 F0
 28.385536 1  180117EFx       Rx   d 8 1B 02 00 7D 00 7D 00 7D
 28.388697 1  180217EFx       Rx   d 8 37 37 00 84 00 00 00 00
 28.472371 1  180117EFx       Rx   d 8 1B 02 00 7D 00 7D 00 7D
 28.489330 1  180217EFx       Rx   d 8 37 37 00 84 00 00 00 10
 28.576834 1  180117EFx       Rx   d 8 1B 02 00 7D 00 7D 00 7D
 28.588351 1  180217EFx       Rx   d 8 37 37 00 84 00 00 00 20
 28.672450 1  180117EFx       Rx   d 8 1B 02 00 7D 00 7D 00 7D
 28.689293 1  180217EFx       Rx   d 8 37 37 00 84 00 00 00 30
 28.781265 1  180117EFx       Rx   d 8 1B 02 00 7D 00 7D 00 7D
 28.788249 1  180217EFx       Rx   d 8 37 37 00 84 00 00 00 40
 28.886453 1  180117EFx       Rx   d 8 1B 02 00 7D 00 7D 00 7D
 28.887863 1  180217EFx       Rx   d 8 37 37 00 84 00 00 00 50
 28.986758 1  180117EFx       Rx   d 8 1B 02 00 7D 00 7D 00 7D
 28.988231 1  180217EFx       Rx   d 8 37 37 00 84 00 00 00 60
 29.073157 1  180117EFx       Rx   d 8 1B 02 00 7D 00 7D 00 7D
 29.088292 1  180217EFx       Rx   d 8 37 37 00 84 00 00 00 70
 29.174214 1  180117EFx       Rx   d 8 1B 02 00 7D 00 7D 00 7D
 29.188280 1  180217EFx       Rx   d 8 37 37 00 84 00 00 00 80
 29.281307 1  180117EFx       Rx   d 8 1B 02 00 7D 00 7D 00 7D
 29.288155 1  180217EFx       Rx   d 8 37 37 00 84 00 00 00 90
 29.385610 1  180117EFx       Rx   d 8 1B 02 00 7D 00 7D 00 7D
 29.388153 1  180217EFx       Rx   d 8 37 37 00 84 00 00 00 A0
 29.486783 1  180117EFx       Rx   d 8 1B 02 00 7D 00 7D 00 7D
 29.488904 1  180217EFx       Rx   d 8 37 37 00 84 00 00 00 B0
 29.573001 1  180117EFx       Rx   d 8 1C 02 95 7C 40 7D 00 7D
 29.588232 1  180217EFx       Rx   d 8 37 32 01 94 00 00 00 C0
 29.673246 1  180117EFx       Rx   d 8 1C 02 97 7C 46 7D 00 7D
 29.688291 1  180217EFx       Rx   d 8 37 32 01 94 00 00 00 D0
 29.781395 1  180117EFx       Rx   d 8 1C 02 96 7C 4B 7D 00 7D
 29.788209 1  180217EFx       Rx   d 8 37 32 01 94 00 00 00 E0
 29.881562 1  180117EFx       Rx   d 8 1C 02 95 7C 54 7D 00 7D
 29.888180 1  180217EFx       Rx   d 8 37 32 01 94 00 00 00 F0
 29.973997 1  180117EFx       Rx   d 8 1C 02 98 7C 57 7D 00 7D
 29.989301 1  180217EFx       Rx   d 8 37 32 01 94 00 00 00 00
 30.076947 1  180117EFx       Rx   d 8 1C 02 96 7C 5C 7D 00 7D
 30.088261 1  180217EFx       Rx   d 8 37 32 01 94 00 00 00 10
 30.174958 1  180117EFx       Rx   d 8 1C 02 95 7C 5F 7D 00 7D
 30.188251 1  180217EFx       Rx   d 8 37 32 01 94 00 00 00 20
 30.281358 1  180117EFx       Rx   d 8 1C 02 97 7C 67 7D 00 7D
 30.288062 1  180217EFx       Rx   d 8 37 32 01 94 00 00 00 30
 30.385514 1  180117EFx       Rx   d 8 1C 02 96 7C 6C 7D 00 7D
 30.388049 1  180217EFx       Rx   d 8 37 32 01 94 00 00 00 40
 30.471514 1  180117EFx       Rx   d 8 1C 02 96 7C 70 7D 00 7D
 30.488998 1  180217EFx       Rx   d 8 37 32 01 94 00 00 00 50
 30.574539 1  180117EFx       Rx   d 8 1C 02 97 7C 73 7D 00 7D
 30.588084 1  180217EFx       Rx   d 8 37 32 01 94 00 00 00 60
 30.672320 1  180117EFx       Rx   d 8 1C 02 96 7C 78 7D 00 7D
 30.687969 1  180217EFx       Rx   d 8 37 32 01 94 00 00 00 70
 30.783105 1  180117EFx       Rx   d 8 1C 02 95 7C 7B 7D 00 7D
 30.788049 1  180217EFx       Rx   d 8 37 32 01 94 00 00 00 80
 30.880649 1  180117EFx       Rx   d 8 1C 02 97 7C 7F 7D 00 7D
 30.888123 1  180217EFx       Rx   d 8 37 32 01 94 00 00 00 90
 30.986723 1  180117EFx       Rx   d 8 1C 02 95 7C 6A 7D 83 7D
 30.989034 1  180217EFx       Rx   d 8 37 32 01 94 00 00 00 A0
 31.085536 1  180117EFx       Rx   d 8 1C 02 95 7C 67 7D D8 7D
 31.087938 1  180217EFx       Rx   d 8 37 32 01 94 00 00 00 B0
 31.177259 1  180117EFx       Rx   d 8 1C 02 9B 7C 6D 7D E6 7D
 31.187982 1  180217EFx       Rx   d 8 37 32 01 94 00 00 00 C0
 31.285748 1  180117EFx       Rx   d 8 1C 02 97 7C 69 7D 42 7E
 31.287739 1  180217EFx       Rx   d 8 37 32 01 94 00 00 00 D0
 31.385352 1  180117EFx       Rx   d 8 1C 02 9D 7C 62 7D 8F 7E
 31.388085 1  180217EFx       Rx   d 8 37 32 01 94 00 00 00 E0
 31.486897 1  180117EFx       Rx   d 8 1C 02 97 7C 4D 7D DF 7E
 31.489684 1  180217EFx       Rx   d 8 37 32 01 94 00 00 00 F0
 31.576133 1  180117EFx       Rx   d 8 1B 02 B1 7C 8E 7D 25 7F
 31.588651 1  180217EFx       Rx   d 8 37 32 01 94 00 00 00 00
 31.676927 1  180117EFx       Rx   d 8 1C 02 AC 7C 8E 7D 63 7F
 31.687933 1  180217EFx       Rx   d 8 37 32 01 94 00 00 00 10
 31.781348 1  180117EFx       Rx   d 8 1C 02 9C 7C 76 7D A1 7F
 31.787878 1  180217EFx       Rx   d 8 37 32 01 94 00 00 00 20
 31.885326 1  180117EFx       Rx   d 8 1C 02 9F 7C 68 7D D8 7F
 31.887862 1  180217EFx       Rx   d 8 37 32 01 94 00 00 00 30
 31.986268 1  180117EFx       Rx   d 8 1C 02 9D 7C 79 7D 08 80
 31.988620 1  180217EFx       Rx   d 8 37 32 01 94 00 00 00 40
 32.072803 1  180117EFx       Rx   d 8 1B 02 A1 7C 6C 7D 37 80
 32.088341 1  180217EFx       Rx   d 8 37 32 01 94 00 00 00 50
 32.172261 1  180117EFx       Rx   d 8 1C 02 9E 7C 73 7D 60 80
 32.188041 1  180217EFx       Rx   d 8 37 32 01 94 00 00 00 60
 32.281113 1  180117EFx       Rx   d 8 1B 02 A0 7C 7A 7D 8F 80
 32.287879 1  180217EFx       Rx   d 8 37 32 01 94 00 00 00 70
 32.385952 1  180117EFx       Rx   d 8 1B 02 B3 7C 93 7D D1 80
 32.387523 1  180217EFx       Rx   d 8 37 32 01 94 00 00 00 80
 32.486364 1  180117EFx       Rx   d 8 1B 02 A2 7C 71 7D 13 81
 32.489617 1  180217EFx       Rx   d 8 37 32 01 94 00 00 00 90
 32.586373 1  180117EFx       Rx   d 8 1B 02 AC 7C 82 7D 6B 81
 32.588186 1  180217EFx       Rx   d 8 37 32 02 94 00 00 00 A0
 32.677852 1  180117EFx       Rx   d 8 1B 02 B3 7C 8A 7D BF 81
 32.687894 1  180217EFx       Rx   d 8 37 32 02 94 00 00 00 B0
 32.781057 1  180117EFx       Rx   d 8 1B 02 B0 7C 7C 7D 10 82
 32.787779 1  180217EFx       Rx   d 8 37 32 01 94 00 00 00 C0
 32.882962 1  180117EFx       Rx   d 8 1B 02 AC 7C 81 7D 4A 82
 32.906696 1  180217EFx       Rx   d 8 37 32 01 94 00 00 00 D0
 32.979469 1  180117EFx       Rx   d 8 1B 02 AC 7C 79 7D 73 82
 32.987644 1  180217EFx       Rx   d 8 37 32 01 94 00 00 00 E0
 33.086289 1  180117EFx       Rx   d 8 1B 02 AE 7C 6B 7D 9B 82
 33.087286 1  180217EFx       Rx   d 8 37 32 01 94 00 00 00 F0
 33.176450 1  180117EFx       Rx   d 8 1B 02 AA 7C 80 7D C3 82
 33.186814 1  180217EFx       Rx   d 8 37 32 01 94 00 00 00 00
 33.282868 1  180117EFx       Rx   d 8 1B 02 AE 7C 81 7D E8 82
 33.286582 1  180217EFx       Rx   d 8 37 32 01 94 00 00 00 10
 33.373183 1  180117EFx       Rx   d 8 1B 02 A9 7C 60 7D 09 83
 33.386683 1  180217EFx       Rx   d 8 37 32 01 94 00 00 00 20
 33.485688 1  180117EFx       Rx   d 8 1B 02 AC 7C 76 7D 31 83
 33.486873 1  180217EFx       Rx   d 8 37 32 01 94 00 00 00 30
 33.576271 1  180117EFx       Rx   d 8 1B 02 BD 7C 8F 7D 64 83
 33.587118 1  180217EFx       Rx   d 8 37 32 01 94 00 00 00 40
 33.673677 1  180117EFx       Rx   d 8 1B 02 BD 7C 9A 7D 8D 83
 33.687844 1  180217EFx       Rx   d 8 37 32 01 94 00 00 00 50
 33.781396 1  180117EFx       Rx   d 8 1B 02 B7 7C 94 7D BC 83
 33.788159 1  180217EFx       Rx   d 8 37 32 01 94 00 00 00 60
 33.885909 1  180117EFx       Rx   d 8 1B 02 BC 7C AE 7D EC 83
 33.887319 1  180217EFx       Rx   d 8 37 32 01 94 00 00 00 70
 33.986113 1  180117EFx       Rx   d 8 1B 02 A4 7C 5A 7D 1C 84
 33.988694 1  180217EFx       Rx   d 8 37 32 01 94 00 00 00 80
 34.073390 1  180117EFx       Rx   d 8 1C 02 99 7C E1 7C A3 83
 34.087716 1  180217EFx       Rx   d 8 37 32 00 84 00 00 00 90
 34.171960 1  180117EFx       Rx   d 8 1C 02 95 7C 1D 7D 18 83
 34.187581 1  180217EFx       Rx   d 8 37 32 00 84 00 00 00 A0
 34.285887 1  180117EFx       Rx   d 8 1C 02 90 7C 1A 7D 94 82
 34.287268 1  180217EFx       Rx   d 8 37 32 00 84 00 00 00 B0
 34.386644 1  180117EFx       Rx   d 8 1C 02 94 7C 1C 7D 17 82
 34.387716 1  180217EFx       Rx   d 8 37 32 00 84 00 00 00 C0
 34.472036 1  180117EFx       Rx   d 8 1C 02 99 7C 21 7D A6 81
 34.488185 1  180217EFx       Rx   d 8 37 32 00 84 00 00 00 D0
 34.572452 1  180117EFx       Rx   d 8 1C 02 96 7C 19 7D 2D 81
 34.587669 1  180217EFx       Rx   d 8 37 32 00 84 00 00 00 E0
 34.685714 1  180117EFx       Rx   d 8 1C 02 9A 7C 28 7D C3 80
 34.687165 1  180217EFx       Rx   d 8 37 32 00 84 00 00 00 F0
 34.780864 1  180117EFx       Rx   d 8 1C 02 9B 7C 13 7D 55 80
 34.787540 1  180217EFx       Rx   d 8 37 32 00 84 00 00 00 00
 34.884999 1  180117EFx       Rx   d 8 1C 02 94 7C FC 7C F6 7F
 34.887510 1  180217EFx       Rx   d 8 37 32 00 84 00 00 00 10
 34.986120 1  180117EFx       Rx   d 8 1C 02 99 7C E4 7C 93 7F
 34.988364 1  180217EFx       Rx   d 8 37 32 00 84 00 00 00 20
 35.072491 1  180117EFx       Rx   d 8 1D 02 99 7C 0E 7D 37 7F
 35.087565 1  180217EFx       Rx   d 8 37 32 00 84 00 00 00 30
 35.172619 1  180117EFx       Rx   d 8 1C 02 9A 7C 05 7D E3 7E
 35.187606 1  180217EFx       Rx   d 8 37 32 00 84 00 00 00 40
 35.281244 1  180117EFx       Rx   d 8 1C 02 97 7C 07 7D 92 7E
 35.287440 1  180217EFx       Rx   d 8 37 32 00 84 00 00 00 50
 35.384943 1  180117EFx       Rx   d 8 1D 02 9A 7C FC 7C 49 7E
 35.387427 1  180217EFx       Rx   d 8 37 32 00 84 00 00 00 60
 35.486622 1  180117EFx       Rx   d 8 1D 02 98 7C 08 7D 07 7E
 35.488271 1  180217EFx       Rx   d 8 37 32 00 84 00 00 00 70
 35.581615 1  180117EFx       Rx   d 8 1C 02 99 7C 03 7D C9 7D
 35.587558 1  180217EFx       Rx   d 8 37 32 00 84 00 00 00 80
 35.686094 1  180117EFx       Rx   d 8 1D 02 99 7C FD 7C A1 7D
 35.687566 1  180217EFx       Rx   d 8 37 32 00 84 00 00 00 90
 35.785608 1  180117EFx       Rx   d 8 1D 02 97 7C 02 7D 8E 7D
 35.788023 1  180217EFx       Rx   d 8 37 32 00 84 00 00 00 A0
 35.885588 1  180117EFx       Rx   d 8 1C 02 00 7D 00 7D 00 7D
 35.887421 1  180217EFx       Rx   d 8 37 32 00 84 00 00 00 B0
 35.986375 1  180117EFx       Rx   d 8 1C 02 00 7D 00 7D 00 7D
 35.987994 1  180217EFx       Rx   d 8 37 37 00 84 00 00 00 C0
 36.085122 1  180117EFx       Rx   d 8 1C 02 00 7D 00 7D 00 7D
 36.088229 1  180217EFx       Rx   d 8 37 37 00 84 00 00 00 D0
 36.176507 1  180117EFx       Rx   d 8 1C 02 00 7D 00 7D 00 7D
 36.187365 1  180217EFx       Rx   d 8 37 37 00 84 00 00 00 E0
 36.280675 1  180117EFx       Rx   d 8 1C 02 00 7D 00 7D 00 7D
 36.287354 1  180217EFx       Rx   d 8 37 37 00 84 00 00 00 F0
 36.385512 1  180117EFx       Rx   d 8 1C 02 00 7D 00 7D 00 7D
 36.386941 1  180217EFx       Rx   d 8 37 37 00 84 00 00 00 00
 36.476325 1  180117EFx       Rx   d 8 1B 02 00 7D 00 7D 00 7D
 36.488298 1  180217EFx       Rx   d 8 37 37 00 84 00 00 00 10
 36.572434 1  180117EFx       Rx   d 8 1C 02 00 7D 00 7D 00 7D
 36.587397 1  180217EFx       Rx   d 8 37 37 00 84 00 00 00 20
 36.671670 1  180117EFx       Rx   d 8 1B 02 00 7D 00 7D 00 7D
 36.687443 1  180217EFx       Rx   d 8 37 37 00 84 00 00 00 30
 36.775830 1  180117EFx       Rx   d 8 1C 02 00 7D 00 7D 00 7D
 36.787427 1  180217EFx       Rx   d 8 37 37 00 84 00 00 00 40
 36.884812 1  180117EFx       Rx   d 8 1C 02 00 7D 00 7D 00 7D
 36.887265 1  180217EFx       Rx   d 8 37 37 00 84 00 00 00 50
 36.978123 1  180117EFx       Rx   d 8 1C 02 00 7D 00 7D 00 7D
 36.988260 1  180217EFx       Rx   d 8 37 37 00 84 00 00 00 60
 37.071990 1  180117EFx       Rx   d 8 1C 02 00 7D 00 7D 00 7D
 37.087358 1  180217EFx       Rx   d 8 37 37 00 84 00 00 00 70
 37.186209 1  180117EFx       Rx   d 8 1C 02 00 7D 00 7D 00 7D
 37.187397 1  180217EFx       Rx   d 8 37 37 00 84 00 00 00 80
 37.285234 1  180117EFx       Rx   d 8 1B 02 00 7D 00 7D 00 7D
 37.286902 1  180217EFx       Rx   d 8 37 37 00 84 00 00 00 90
 37.382672 1  180117EFx       Rx   d 8 1C 02 00 7D 00 7D 00 7D
 37.387279 1  180217EFx       Rx   d 8 37 37 00 84 00 00 00 A0
 37.478620 1  180117EFx       Rx   d 8 1C 02 00 7D 00 7D 00 7D
 37.487732 1  180217EFx       Rx   d 8 37 37 00 84 00 00 00 B0
 37.577399 1  180117EFx       Rx   d 8 1C 02 00 7D 00 7D 00 7D
 37.587287 1  180217EFx       Rx   d 8 37 37 00 84 00 00 00 C0
 37.678632 1  180117EFx       Rx   d 8 1C 02 00 7D 00 7D 00 7D
 37.687932 1  180217EFx       Rx   d 8 37 37 00 84 00 00 00 D0
 37.780535 1  180117EFx       Rx   d 8 1C 02 00 7D 00 7D 00 7D
 37.787178 1  180217EFx       Rx   d 8 37 37 00 84 00 00 00 E0
 37.884684 1  180117EFx       Rx   d 8 1C 02 00 7D 00 7D 00 7D
 37.887114 1  180217EFx       Rx   d 8 37 37 00 84 00 00 00 F0
 37.985859 1  180117EFx       Rx   d 8 1C 02 00 7D 00 7D 00 7D
 37.987663 1  180217EFx       Rx   d 8 37 37 00 84 00 00 00 00
 38.079668 1  180117EFx       Rx   d 8 1D 02 92 7C 9F 7D 00 7D
 38.087229 1  180217EFx       Rx   d 8 37 32 03 94 00 00 00 10
 38.176333 1  180117EFx       Rx   d 8 1D 02 94 7C 91 7D BE 7D
 38.187202 1  180217EFx       Rx   d 8 37 32 03 94 00 00 00 20
 38.281184 1  180117EFx       Rx   d 8 1D 02 9E 7C 72 7D 37 7E
 38.287076 1  180217EFx       Rx   d 8 37 32 03 94 00 00 00 30
 38.384644 1  180117EFx       Rx   d 8 1C 02 A9 7C 5D 7D 8B 7E
 38.387055 1  180217EFx       Rx   d 8 37 32 04 94 00 00 00 40
 38.472813 1  180117EFx       Rx   d 8 1C 02 9F 7C 98 7D 37 7F
 38.488373 1  180217EFx       Rx   d 8 37 32 04 94 00 00 00 50
 38.572809 1  180117EFx       Rx   d 8 1C 02 A4 7C 84 7D D1 7F
 38.587199 1  180217EFx       Rx   d 8 37 32 04 94 00 00 00 60
 38.671888 1  180117EFx       Rx   d 8 1B 02 B4 7C D0 7D 6E 80
 38.688192 1  180217EFx       Rx   d 8 37 32 04 94 00 00 00 70
 38.776506 1  180117EFx       Rx   d 8 1B 02 B5 7C DA 7D 1E 81
 38.787017 1  180217EFx       Rx   d 8 37 32 04 94 00 00 00 80
 38.885848 1  180117EFx       Rx   d 8 1B 02 B0 7C B9 7D CE 81
 38.887816 1  180217EFx       Rx   d 8 37 32 04 94 00 00 00 90
 38.985900 1  180117EFx       Rx   d 8 1B 02 BC 7C D1 7D 7E 82
 38.987900 1  180217EFx       Rx   d 8 37 32 04 94 00 00 00 A0
 39.072695 1  180117EFx       Rx   d 8 1B 02 A9 7C 78 7D CB 82
 39.087095 1  180217EFx       Rx   d 8 37 32 02 94 00 00 00 B0
 39.171397 1  180117EFx       Rx   d 8 1B 02 A8 7C 74 7D 05 83
 39.187140 1  180217EFx       Rx   d 8 37 32 02 94 00 00 00 C0
 39.275030 1  180117EFx       Rx   d 8 1B 02 AA 7C 8B 7D 3C 83
 39.287025 1  180217EFx       Rx   d 8 37 32 02 94 00 00 00 D0
 39.385848 1  180117EFx       Rx   d 8 1B 02 BA 7C 95 7D 6F 83
 39.387446 1  180217EFx       Rx   d 8 37 32 02 94 00 00 00 E0
 39.480393 1  180117EFx       Rx   d 8 1B 02 B0 7C AD 7D AA 83
 39.488639 1  180217EFx       Rx   d 8 37 32 03 94 00 00 00 F0
 39.572989 1  180117EFx       Rx   d 8 1B 02 C2 7C 8F 7D E1 83
 39.586899 1  180217EFx       Rx   d 8 37 32 03 94 00 00 00 00
 39.673907 1  180117EFx       Rx   d 8 1B 02 C0 7C 95 7D 18 84
 39.686975 1  180217EFx       Rx   d 8 37 32 02 94 00 00 00 10
 39.780132 1  180117EFx       Rx   d 8 1C 02 93 7C 15 7D AE 83
 39.786923 1  180217EFx       Rx   d 8 37 32 00 84 00 00 00 20
 39.885836 1  180117EFx       Rx   d 8 1C 02 95 7C 32 7D 1F 83
 39.887718 1  180217EFx       Rx   d 8 37 32 00 84 00 00 00 30
 39.974475 1  180117EFx       Rx   d 8 1C 02 98 7C 2F 7D 9B 82
 39.987755 1  180217EFx       Rx   d 8 37 32 00 84 00 00 00 40
 40.076896 1  180117EFx       Rx   d 8 1C 02 99 7C 1F 7D 1F 82
 40.088527 1  180217EFx       Rx   d 8 37 32 00 84 00 00 00 50
 40.171738 1  180117EFx       Rx   d 8 1C 02 99 7C 0E 7D A6 81
 40.186922 1  180217EFx       Rx   d 8 37 32 00 84 00 00 00 60
 40.285801 1  180117EFx       Rx   d 8 1C 02 99 7C 1F 7D 30 81
 40.287241 1  180217EFx       Rx   d 8 37 32 00 84 00 00 00 70
 40.385758 1  180117EFx       Rx   d 8 1C 02 98 7C 25 7D C3 80
 40.387187 1  180217EFx       Rx   d 8 37 32 00 84 00 00 00 80
 40.485832 1  180117EFx       Rx   d 8 1C 02 9B 7C 0F 7D 55 80
 40.487789 1  180217EFx       Rx   d 8 37 32 00 84 00 00 00 90
 40.585497 1  180117EFx       Rx   d 8 1C 02 97 7C FB 7C F6 7F
 40.587030 1  180217EFx       Rx   d 8 37 32 00 84 00 00 00 A0
 40.671203 1  180117EFx       Rx   d 8 1D 02 9C 7C E1 7C 93 7F
 40.687006 1  180217EFx       Rx   d 8 37 32 00 84 00 00 00 B0
 40.780901 1  180117EFx       Rx   d 8 1D 02 99 7C 04 7D 3B 7F
 40.786766 1  180217EFx       Rx   d 8 37 32 00 84 00 00 00 C0
 40.884254 1  180117EFx       Rx   d 8 1D 02 9B 7C 1C 7D DF 7E
 40.886788 1  180217EFx       Rx   d 8 37 32 00 84 00 00 00 D0
 40.985714 1  180117EFx       Rx   d 8 1D 02 96 7C 05 7D 92 7E
 40.987983 1  180217EFx       Rx   d 8 37 32 00 84 00 00 00 E0
 41.071727 1  180117EFx       Rx   d 8 1D 02 9E 7C 07 7D 49 7E
 41.086728 1  180217EFx       Rx   d 8 37 32 00 84 00 00 00 F0
 41.170801 1  180117EFx       Rx   d 8 1D 02 98 7C 13 7D 0B 7E
 41.186939 1  180217EFx       Rx   d 8 37 32 00 84 00 00 00 00
 41.280127 1  180117EFx       Rx   d 8 1D 02 96 7C 0E 7D D0 7D
 41.286721 1  180217EFx       Rx   d 8 37 32 00 84 00 00 00 10
 41.385335 1  180117EFx       Rx   d 8 1D 02 9A 7C 02 7D 9D 7D
 41.387416 1  180217EFx       Rx   d 8 37 32 00 84 00 00 00 20
 41.485573 1  180117EFx       Rx   d 8 1D 02 97 7C F8 7C 80 7D
 41.487094 1  180217EFx       Rx   d 8 37 32 00 84 00 00 00 30
 41.572369 1  180117EFx       Rx   d 8 1D 02 98 7C FA 7C 80 7D
 41.587241 1  180217EFx       Rx   d 8 37 32 00 84 00 00 00 40
 41.675617 1  180117EFx       Rx   d 8 1B 02 00 7D 00 7D 00 7D
 41.686740 1  180217EFx       Rx   d 8 37 37 00 84 00 00 00 50
 41.778995 1  180117EFx       Rx   d 8 1C 02 00 7D 00 7D 00 7D
 41.786681 1  180217EFx       Rx   d 8 37 37 00 84 00 00 00 60
 41.879355 1  180117EFx       Rx   d 8 1C 02 00 7D 00 7D 00 7D
 41.886841 1  180217EFx       Rx   d 8 37 37 00 84 00 00 00 70
 41.985330 1  180117EFx       Rx   d 8 1B 02 00 7D 00 7D 00 7D
 41.987601 1  180217EFx       Rx   d 8 37 37 00 84 00 00 00 80
 42.072595 1  180117EFx       Rx   d 8 1C 02 00 7D 00 7D 00 7D
 42.086681 1  180217EFx       Rx   d 8 37 37 00 84 00 00 00 90
 42.172338 1  180117EFx       Rx   d 8 1C 02 00 7D 00 7D 00 7D
 42.186782 1  180217EFx       Rx   d 8 37 37 00 84 00 00 00 A0
 42.280728 1  180117EFx       Rx   d 8 1B 02 00 7D 00 7D 00 7D
 42.286598 1  180217EFx       Rx   d 8 37 37 00 84 00 00 00 B0
 42.385433 1  180117EFx       Rx   d 8 1C 02 00 7D 00 7D 00 7D
 42.386595 1  180217EFx       Rx   d 8 37 37 00 84 00 00 00 C0
 42.480666 1  180117EFx       Rx   d 8 1C 02 00 7D 00 7D 00 7D
 42.486737 1  180217EFx       Rx   d 8 37 37 00 84 00 00 00 D0
 42.572307 1  180117EFx       Rx   d 8 1B 02 00 7D 00 7D 00 7D
 42.586722 1  180217EFx       Rx   d 8 37 37 00 84 00 00 00 E0
 42.675530 1  180117EFx       Rx   d 8 1C 02 00 7D 00 7D 00 7D
 42.686632 1  180217EFx       Rx   d 8 37 37 00 84 00 00 00 F0
 42.775699 1  180117EFx       Rx   d 8 1C 02 00 7D 00 7D 00 7D
 42.786703 1  180217EFx       Rx   d 8 37 37 00 84 00 00 00 00
 42.885375 1  180117EFx       Rx   d 8 1C 02 00 7D 00 7D 00 7D
End TriggerBlock
