date Sat May 16 16:08:20.92 2026
base hex  timestamps absolute
internal events logged
Begin Triggerblock Sat May 16 16:08:20.122 2026
 0.000000 Start of measurement
 0.000000 1  180117EFx       Rx   d 8 11 02 00 7D 00 7D 00 7D
 0.005194 1  180217EFx       Rx   d 8 38 37 00 84 00 00 00 B0
 0.099170 1  180117EFx       Rx   d 8 11 02 00 7D 00 7D 00 7D
 0.100319 1  180217EFx       Rx   d 8 38 37 00 84 00 00 00 C0
 0.199232 1  180117EFx       Rx   d 8 11 02 00 7D 00 7D 00 7D
 0.200230 1  180217EFx       Rx   d 8 38 37 00 84 00 00 00 D0
 0.285453 1  180117EFx       Rx   d 8 11 02 00 7D 00 7D 00 7D
 0.302564 1  180217EFx       Rx   d 8 38 37 00 84 00 00 00 E0
 0.399456 1  180117EFx       Rx   d 8 11 02 00 7D 00 7D 00 7D
 0.400471 1  180217EFx       Rx   d 8 38 37 00 84 00 00 00 F0
 0.497871 1  180117EFx       Rx   d 8 11 02 00 7D 00 7D 00 7D
 0.500054 1  180217EFx       Rx   d 8 38 37 00 84 00 00 00 00
 0.599251 1  180117EFx       Rx   d 8 11 02 00 7D 00 7D 00 7D
 0.602745 1  180217EFx       Rx   d 8 38 37 00 84 00 00 00 10
 0.697687 1  180117EFx       Rx   d 8 11 02 00 7D 00 7D 00 7D
 0.704345 1  180217EFx       Rx   d 8 38 37 00 84 00 00 00 20
 0.788882 1  180117EFx       Rx   d 8 10 02 00 7D 00 7D 00 7D
 0.800656 1  180217EFx       Rx   d 8 38 37 00 84 00 00 00 30
 0.892095 1  180117EFx       Rx   d 8 11 02 00 7D 00 7D 00 7D
 0.900708 1  180217EFx       Rx   d 8 38 37 00 84 00 00 00 40
 0.999938 1  180117EFx       Rx   d 8 11 02 00 7D 00 7D 00 7D
 0.999938 1  180217EFx       Rx   d 8 38 37 00 84 00 00 00 50
 1.099727 1  180117EFx       Rx   d 8 11 02 00 7D 00 7D 00 7D
 1.103927 1  180217EFx       Rx   d 8 38 37 00 84 00 00 00 60
 1.199847 1  180117EFx       Rx   d 8 11 02 00 7D 00 7D 00 7D
 1.203979 1  180217EFx       Rx   d 8 38 37 00 84 00 00 00 70
 1.299784 1  180117EFx       Rx   d 8 11 02 00 7D 00 7D 00 7D
 1.301061 1  180217EFx       Rx   d 8 38 37 00 84 00 00 00 80
 1.388876 1  180117EFx       Rx   d 8 11 02 00 7D 00 7D 00 7D
 1.400668 1  180217EFx       Rx   d 8 38 37 00 84 00 00 00 90
 1.487679 1  180117EFx       Rx   d 8 11 02 00 7D 00 7D 00 7D
 1.500257 1  180217EFx       Rx   d 8 38 37 00 84 00 00 00 A0
 1.599537 1  180117EFx       Rx   d 8 10 02 00 7D 00 7D 00 7D
 1.603806 1  180217EFx       Rx   d 8 38 37 00 84 00 00 00 B0
 1.689357 1  180117EFx       Rx   d 8 11 02 00 7D 00 7D 00 7D
 1.689357 1  180217EFx       Rx   d 8 38 37 00 84 00 00 00 C0
 1.799426 1  180117EFx       Rx   d 8 11 02 00 7D 00 7D 00 7D
 1.800149 1  180217EFx       Rx   d 8 38 37 00 84 00 00 00 D0
 1.898808 1  180117EFx       Rx   d 8 11 02 00 7D 00 7D 00 7D
 1.900005 1  180217EFx       Rx   d 8 38 37 00 84 00 00 00 E0
 1.998148 1  180117EFx       Rx   d 8 11 02 00 7D 00 7D 00 7D
 2.000032 1  180217EFx       Rx   d 8 38 37 00 84 00 00 00 F0
 2.099383 1  180117EFx       Rx   d 8 11 02 00 7D 00 7D 00 7D
 2.105663 1  180217EFx       Rx   d 8 38 37 00 84 00 00 00 00
 2.198578 1  180117EFx       Rx   d 8 11 02 00 7D 00 7D 00 7D
 2.201777 1  180217EFx       Rx   d 8 38 37 00 84 00 00 00 10
 2.297651 1  180117EFx       Rx   d 8 11 02 00 7D 00 7D 00 7D
 2.300094 1  180217EFx       Rx   d 8 38 37 00 84 00 00 00 20
 2.390977 1  180117EFx       Rx   d 8 11 02 00 7D 00 7D 00 7D
 2.400542 1  180217EFx       Rx   d 8 38 37 00 84 00 00 00 30
 2.499759 1  180117EFx       Rx   d 8 11 02 00 7D 00 7D 00 7D
 2.499759 1  180217EFx       Rx   d 8 38 37 00 84 00 00 00 40
 2.599615 1  180117EFx       Rx   d 8 11 02 00 7D 00 7D 00 7D
 2.603826 1  180217EFx       Rx   d 8 38 37 00 84 00 00 00 50
 2.693015 1  180117EFx       Rx   d 8 11 02 00 7D 00 7D 00 7D
 2.703913 1  180217EFx       Rx   d 8 38 37 00 84 00 00 00 60
 2.785185 1  180117EFx       Rx   d 8 11 02 00 7D 00 7D 00 7D
 2.800457 1  180217EFx       Rx   d 8 38 37 00 84 00 00 00 70
 2.887183 1  180117EFx       Rx   d 8 11 02 00 7D 00 7D 00 7D
 2.900457 1  180217EFx       Rx   d 8 38 37 00 84 00 00 00 80
 2.991058 1  180117EFx       Rx   d 8 11 02 00 7D 00 7D 00 7D
 3.000373 1  180217EFx       Rx   d 8 38 37 00 84 00 00 00 90
 3.099314 1  180117EFx       Rx   d 8 11 02 00 7D 00 7D 00 7D
 3.099314 1  180217EFx       Rx   d 8 38 37 00 84 00 00 00 A0
 3.193672 1  180117EFx       Rx   d 8 11 02 00 7D 00 7D 00 7D
 3.200402 1  180217EFx       Rx   d 8 38 37 00 84 00 00 00 B0
 3.292680 1  180117EFx       Rx   d 8 11 02 00 7D 00 7D 00 7D
 3.292680 1  180217EFx       Rx   d 8 38 37 00 84 00 00 00 C0
 3.389845 1  180117EFx       Rx   d 8 10 02 A5 7C C5 7E BB 7E
 3.401225 1  180217EFx       Rx   d 8 38 37 15 94 00 00 00 D0
 3.499499 1  180117EFx       Rx   d 8 0D 02 12 7D 27 7F 68 82
 3.504129 1  180217EFx       Rx   d 8 38 37 15 94 00 00 00 E0
 3.598414 1  180117EFx       Rx   d 8 11 02 93 7C 14 7D FA 82
 3.600071 1  180217EFx       Rx   d 8 38 37 00 84 00 00 00 F0
 3.699471 1  180117EFx       Rx   d 8 11 02 98 7C 15 7D 4E 82
 3.700215 1  180217EFx       Rx   d 8 38 37 00 84 00 00 00 00
 3.798644 1  180117EFx       Rx   d 8 11 02 97 7C 19 7D C7 81
 3.799642 1  180217EFx       Rx   d 8 38 37 00 84 00 00 00 10
 3.899218 1  180117EFx       Rx   d 8 11 02 9D 7C 27 7D 4E 81
 3.904206 1  180217EFx       Rx   d 8 38 37 00 84 00 00 00 20
 3.990526 1  180117EFx       Rx   d 8 11 02 9D 7C 1F 7D D1 80
 3.990526 1  180217EFx       Rx   d 8 38 37 00 84 00 00 00 30
 4.095372 1  180117EFx       Rx   d 8 11 02 9E 7C 1C 7D 60 80
 4.099827 1  180217EFx       Rx   d 8 38 37 00 84 00 00 00 40
 4.199387 1  180117EFx       Rx   d 8 11 02 9B 7C 31 7D F9 7F
 4.200325 1  180217EFx       Rx   d 8 38 37 00 84 00 00 00 50
 4.299969 1  180117EFx       Rx   d 8 11 02 9D 7C 06 7D 8F 7F
 4.300118 1  180217EFx       Rx   d 8 38 37 00 84 00 00 00 60
 4.384773 1  180117EFx       Rx   d 8 11 02 9A 7C 12 7D 2C 7F
 4.404968 1  180217EFx       Rx   d 8 38 37 00 84 00 00 00 70
 4.499405 1  180117EFx       Rx   d 8 10 02 E7 7C 07 7F F5 7E
 4.500060 1  180217EFx       Rx   d 8 38 37 10 94 00 00 00 80
 4.599218 1  180117EFx       Rx   d 8 0C 02 46 7D C1 7F EF 82
 4.599218 1  180217EFx       Rx   d 8 38 37 1C 94 00 00 00 90
 4.693046 1  180117EFx       Rx   d 8 0A 02 4D 7D 4B 7F 6D 86
 4.700215 1  180217EFx       Rx   d 8 38 37 21 94 00 00 00 A0
 4.790979 1  180117EFx       Rx   d 8 0F 02 92 7C BB 7C 0B 88
 4.790979 1  180217EFx       Rx   d 8 38 37 00 84 00 00 00 B0
 4.888955 1  180117EFx       Rx   d 8 11 02 A2 7C DD 7C 3E 87
 4.888955 1  180217EFx       Rx   d 8 38 37 00 84 00 00 00 C0
 4.997366 1  180117EFx       Rx   d 8 11 02 A0 7C 3C 7D 78 86
 5.000312 1  180217EFx       Rx   d 8 38 37 00 84 00 00 00 D0
 5.095795 1  180117EFx       Rx   d 8 11 02 A9 7C 1F 7D CF 85
 5.099850 1  180217EFx       Rx   d 8 38 37 00 84 00 00 00 E0
 5.184102 1  180117EFx       Rx   d 8 11 02 A0 7C 2F 7D 2B 85
 5.199890 1  180217EFx       Rx   d 8 38 37 00 84 00 00 00 F0
 5.298062 1  180117EFx       Rx   d 8 11 02 9F 7C 51 7D 98 84
 5.298062 1  180217EFx       Rx   d 8 38 37 00 84 00 00 00 00
 5.386394 1  180117EFx       Rx   d 8 11 02 9A 7C 09 7D 09 84
 5.403763 1  180217EFx       Rx   d 8 38 37 00 84 00 00 00 10
 5.490430 1  180117EFx       Rx   d 8 11 02 9C 7C 29 7D 7E 83
 5.490430 1  180217EFx       Rx   d 8 38 37 00 84 00 00 00 20
 5.595231 1  180117EFx       Rx   d 8 11 02 91 7C 12 7D F7 82
 5.599889 1  180217EFx       Rx   d 8 38 37 00 84 00 00 00 30
 5.699252 1  180117EFx       Rx   d 8 11 02 97 7C 1E 7D 7A 82
 5.700137 1  180217EFx       Rx   d 8 38 37 00 84 00 00 00 40
 5.798982 1  180117EFx       Rx   d 8 11 02 9C 7C 21 7D FA 81
 5.798982 1  180217EFx       Rx   d 8 38 37 00 84 00 00 00 50
 5.895411 1  180117EFx       Rx   d 8 11 02 99 7C 16 7D 85 81
 5.895411 1  180217EFx       Rx   d 8 38 37 00 84 00 00 00 60
 5.997014 1  180117EFx       Rx   d 8 11 02 9A 7C 16 7D 13 81
 5.999982 1  180217EFx       Rx   d 8 38 37 00 84 00 00 00 70
 6.093517 1  180117EFx       Rx   d 8 11 02 97 7C FA 7C A9 80
 6.099858 1  180217EFx       Rx   d 8 38 37 00 84 00 00 00 80
 6.199148 1  180117EFx       Rx   d 8 11 02 9D 7C 23 7D 3B 80
 6.199148 1  180217EFx       Rx   d 8 38 37 00 84 00 00 00 90
 6.299595 1  180117EFx       Rx   d 8 11 02 9F 7C 22 7D D5 7F
 6.304263 1  180217EFx       Rx   d 8 38 37 00 84 00 00 00 A0
 6.389119 1  180117EFx       Rx   d 8 11 02 98 7C 19 7D 79 7F
 6.389119 1  180217EFx       Rx   d 8 38 37 00 84 00 00 00 B0
 6.491905 1  180117EFx       Rx   d 8 11 02 9A 7C 10 7D 1D 7F
 6.491905 1  180217EFx       Rx   d 8 38 37 00 84 00 00 00 C0
 6.595239 1  180117EFx       Rx   d 8 11 02 9D 7C 1C 7D C9 7E
 6.599697 1  180217EFx       Rx   d 8 38 37 00 84 00 00 00 D0
 6.699071 1  180117EFx       Rx   d 8 11 02 99 7C 0D 7D 79 7E
 6.699748 1  180217EFx       Rx   d 8 38 37 00 84 00 00 00 E0
 6.784724 1  180117EFx       Rx   d 8 11 02 98 7C 08 7D 33 7E
 6.799958 1  180217EFx       Rx   d 8 38 37 00 84 00 00 00 F0
 6.896747 1  180117EFx       Rx   d 8 11 02 9B 7C 10 7D F1 7D
 6.896747 1  180217EFx       Rx   d 8 38 37 00 84 00 00 00 00
 6.988037 1  180117EFx       Rx   d 8 11 02 99 7C 06 7D BA 7D
 7.003915 1  180217EFx       Rx   d 8 38 37 00 84 00 00 00 10
 7.092824 1  180117EFx       Rx   d 8 11 02 98 7C FB 7C 92 7D
 7.099601 1  180217EFx       Rx   d 8 38 37 00 84 00 00 00 20
 7.197182 1  180117EFx       Rx   d 8 11 02 9C 7C 0A 7D 78 7D
 7.199802 1  180217EFx       Rx   d 8 38 37 00 84 00 00 00 30
 7.284328 1  180117EFx       Rx   d 8 11 02 9A 7C EB 7C 78 7D
 7.299858 1  180217EFx       Rx   d 8 38 37 00 84 00 00 00 40
 7.394428 1  180117EFx       Rx   d 8 10 02 00 7D 00 7D 00 7D
 7.394428 1  180217EFx       Rx   d 8 38 37 00 84 00 00 00 50
 7.490302 1  180117EFx       Rx   d 8 11 02 00 7D 00 7D 00 7D
 7.499811 1  180217EFx       Rx   d 8 38 37 00 84 00 00 00 60
 7.591180 1  180117EFx       Rx   d 8 10 02 00 7D 00 7D 00 7D
 7.599556 1  180217EFx       Rx   d 8 38 37 00 84 00 00 00 70
 7.689790 1  180117EFx       Rx   d 8 10 02 00 7D 00 7D 00 7D
 7.699736 1  180217EFx       Rx   d 8 38 37 00 84 00 00 00 80
 7.793162 1  180117EFx       Rx   d 8 11 02 00 7D 00 7D 00 7D
 7.793162 1  180217EFx       Rx   d 8 38 37 00 84 00 00 00 90
 7.886915 1  180117EFx       Rx   d 8 11 02 00 7D 00 7D 00 7D
 7.903463 1  180217EFx       Rx   d 8 38 37 00 84 00 00 00 A0
 7.990763 1  180117EFx       Rx   d 8 10 02 00 7D 00 7D 00 7D
 7.999779 1  180217EFx       Rx   d 8 38 37 00 84 00 00 00 B0
 8.095181 1  180117EFx       Rx   d 8 10 02 00 7D 00 7D 00 7D
 8.099620 1  180217EFx       Rx   d 8 38 37 00 84 00 00 00 C0
 8.186790 1  180117EFx       Rx   d 8 10 02 00 7D 00 7D 00 7D
 8.199654 1  180217EFx       Rx   d 8 38 37 00 84 00 00 00 D0
 8.295203 1  180117EFx       Rx   d 8 10 02 00 7D 00 7D 00 7D
 8.295203 1  180217EFx       Rx   d 8 38 37 00 84 00 00 00 E0
 8.398428 1  180117EFx       Rx   d 8 11 02 00 7D 00 7D 00 7D
 8.402963 1  180217EFx       Rx   d 8 38 37 00 84 00 00 00 F0
 8.497753 1  180117EFx       Rx   d 8 11 02 00 7D 00 7D 00 7D
 8.499808 1  180217EFx       Rx   d 8 38 37 00 84 00 00 00 00
 8.598778 1  180117EFx       Rx   d 8 10 02 00 7D 00 7D 00 7D
 8.598778 1  180217EFx       Rx   d 8 38 37 00 84 00 00 00 10
 8.685943 1  180117EFx       Rx   d 8 11 02 00 7D 00 7D 00 7D
 8.699697 1  180217EFx       Rx   d 8 38 37 00 84 00 00 00 20
 8.789283 1  180117EFx       Rx   d 8 10 02 00 7D 00 7D 00 7D
 8.789283 1  180217EFx       Rx   d 8 38 37 00 84 00 00 00 30
 8.893380 1  180117EFx       Rx   d 8 11 02 00 7D 00 7D 00 7D
 8.893380 1  180217EFx       Rx   d 8 38 37 00 84 00 00 00 40
 8.997808 1  180117EFx       Rx   d 8 11 02 00 7D 00 7D 00 7D
 8.999736 1  180217EFx       Rx   d 8 38 37 00 84 00 00 00 50
 9.096539 1  180117EFx       Rx   d 8 11 02 00 7D 00 7D 00 7D
 9.099382 1  180217EFx       Rx   d 8 38 37 00 84 00 00 00 60
 9.194434 1  180117EFx       Rx   d 8 10 02 00 7D 00 7D 00 7D
 9.199630 1  180217EFx       Rx   d 8 38 37 00 84 00 00 00 70
 9.288680 1  180117EFx       Rx   d 8 10 02 00 7D 00 7D 00 7D
 9.288680 1  180217EFx       Rx   d 8 38 37 00 84 00 00 00 80
 9.393931 1  180117EFx       Rx   d 8 11 02 00 7D 00 7D 00 7D
 9.399735 1  180217EFx       Rx   d 8 38 37 00 84 00 00 00 90
 9.498987 1  180117EFx       Rx   d 8 11 02 00 7D 00 7D 00 7D
 9.499565 1  180217EFx       Rx   d 8 38 37 00 84 00 00 00 A0
 9.598715 1  180117EFx       Rx   d 8 11 02 00 7D 00 7D 00 7D
 9.599266 1  180217EFx       Rx   d 8 38 37 00 84 00 00 00 B0
 9.698185 1  180117EFx       Rx   d 8 10 02 00 7D 00 7D 00 7D
 9.699197 1  180217EFx       Rx   d 8 38 37 00 84 00 00 00 C0
 9.798467 1  180117EFx       Rx   d 8 10 02 00 7D 00 7D 00 7D
 9.801195 1  180217EFx       Rx   d 8 38 37 00 84 00 00 00 D0
 9.898297 1  180117EFx       Rx   d 8 10 02 00 7D 00 7D 00 7D
 9.899159 1  180217EFx       Rx   d 8 38 37 00 84 00 00 00 E0
 9.998260 1  180117EFx       Rx   d 8 11 02 00 7D 00 7D 00 7D
 9.999143 1  180217EFx       Rx   d 8 38 37 00 84 00 00 00 F0
 10.098029 1  180117EFx       Rx   d 8 11 02 00 7D 00 7D 00 7D
 10.100250 1  180217EFx       Rx   d 8 38 37 00 84 00 00 00 00
 10.197195 1  180117EFx       Rx   d 8 11 02 00 7D 00 7D 00 7D
 10.201205 1  180217EFx       Rx   d 8 38 37 00 84 00 00 00 10
 10.298565 1  180117EFx       Rx   d 8 11 02 00 7D 00 7D 00 7D
 10.299111 1  180217EFx       Rx   d 8 38 37 00 84 00 00 00 20
 10.398497 1  180117EFx       Rx   d 8 11 02 00 7D 00 7D 00 7D
 10.398497 1  180217EFx       Rx   d 8 38 37 00 84 00 00 00 30
 10.498393 1  180117EFx       Rx   d 8 11 02 00 7D 00 7D 00 7D
 10.498393 1  180217EFx       Rx   d 8 38 37 00 84 00 00 00 40
 10.591169 1  180117EFx       Rx   d 8 10 02 00 7D 00 7D 00 7D
 10.600368 1  180217EFx       Rx   d 8 38 37 00 84 00 00 00 50
 10.698759 1  180117EFx       Rx   d 8 10 02 00 7D 00 7D 00 7D
 10.703523 1  180217EFx       Rx   d 8 38 37 00 84 00 00 00 60
 10.784527 1  180117EFx       Rx   d 8 10 02 00 7D 00 7D 00 7D
 10.799636 1  180217EFx       Rx   d 8 38 37 00 84 00 00 00 70
 10.884633 1  180117EFx       Rx   d 8 11 02 00 7D 00 7D 00 7D
 10.899482 1  180217EFx       Rx   d 8 38 37 00 84 00 00 00 80
 10.998512 1  180117EFx       Rx   d 8 11 02 00 7D 00 7D 00 7D
 10.998512 1  180217EFx       Rx   d 8 38 37 00 84 00 00 00 90
 11.098442 1  180117EFx       Rx   d 8 11 02 00 7D 00 7D 00 7D
 11.102344 1  180217EFx       Rx   d 8 38 37 00 84 00 00 00 A0
 11.196631 1  180117EFx       Rx   d 8 11 02 00 7D 00 7D 00 7D
 11.199138 1  180217EFx       Rx   d 8 38 37 00 84 00 00 00 B0
 11.294164 1  180117EFx       Rx   d 8 11 02 00 7D 00 7D 00 7D
 11.298958 1  180217EFx       Rx   d 8 38 37 00 84 00 00 00 C0
 11.397636 1  180117EFx       Rx   d 8 11 02 00 7D 00 7D 00 7D
 11.400914 1  180217EFx       Rx   d 8 38 37 00 84 00 00 00 D0
 11.485156 1  180117EFx       Rx   d 8 10 02 00 7D 00 7D 00 7D
 11.501047 1  180217EFx       Rx   d 8 38 37 00 84 00 00 00 E0
 11.594065 1  180117EFx       Rx   d 8 11 02 00 7D 00 7D 00 7D
 11.598938 1  180217EFx       Rx   d 8 38 37 00 84 00 00 00 F0
 11.698470 1  180117EFx       Rx   d 8 11 02 00 7D 00 7D 00 7D
 11.699156 1  180217EFx       Rx   d 8 38 37 00 84 00 00 00 00
 11.794958 1  180117EFx       Rx   d 8 10 02 00 7D 00 7D 00 7D
 11.799414 1  180217EFx       Rx   d 8 38 37 00 84 00 00 00 10
 11.898033 1  180117EFx       Rx   d 8 11 02 00 7D 00 7D 00 7D
 11.900038 1  180217EFx       Rx   d 8 38 37 00 84 00 00 00 20
 11.992977 1  180117EFx       Rx   d 8 11 02 00 7D 00 7D 00 7D
 11.999416 1  180217EFx       Rx   d 8 38 37 00 84 00 00 00 30
 12.095158 1  180117EFx       Rx   d 8 11 02 00 7D 00 7D 00 7D
 12.099093 1  180217EFx       Rx   d 8 38 37 00 84 00 00 00 40
 12.185260 1  180117EFx       Rx   d 8 11 02 00 7D 00 7D 00 7D
 12.199245 1  180217EFx       Rx   d 8 38 37 00 84 00 00 00 50
 12.296377 1  180117EFx       Rx   d 8 11 02 00 7D 00 7D 00 7D
 12.296377 1  180217EFx       Rx   d 8 38 37 00 84 00 00 00 60
 12.397974 1  180117EFx       Rx   d 8 10 02 00 7D 00 7D 00 7D
 12.400042 1  180217EFx       Rx   d 8 38 37 00 84 00 00 00 70
 12.495270 1  180117EFx       Rx   d 8 11 02 00 7D 00 7D 00 7D
 12.499356 1  180217EFx       Rx   d 8 38 37 00 84 00 00 00 80
 12.592377 1  180117EFx       Rx   d 8 11 02 00 7D 00 7D 00 7D
 12.599066 1  180217EFx       Rx   d 8 38 37 00 84 00 00 00 90
 12.683703 1  180117EFx       Rx   d 8 11 02 00 7D 00 7D 00 7D
 12.699169 1  180217EFx       Rx   d 8 38 37 00 84 00 00 00 A0
 12.784374 1  180117EFx       Rx   d 8 11 02 00 7D 00 7D 00 7D
 12.802435 1  180217EFx       Rx   d 8 38 37 00 84 00 00 00 B0
 12.885956 1  180117EFx       Rx   d 8 10 02 00 7D 00 7D 00 7D
 12.901411 1  180217EFx       Rx   d 8 38 37 00 84 00 00 00 C0
 12.987036 1  180117EFx       Rx   d 8 10 02 00 7D 00 7D 00 7D
 12.999285 1  180217EFx       Rx   d 8 38 37 00 84 00 00 00 D0
 13.095029 1  180117EFx       Rx   d 8 11 02 00 7D 00 7D 00 7D
 13.099056 1  180217EFx       Rx   d 8 38 37 00 84 00 00 00 E0
 13.189479 1  180117EFx       Rx   d 8 11 02 00 7D 00 7D 00 7D
 13.199203 1  180217EFx       Rx   d 8 38 37 00 84 00 00 00 F0
 13.286704 1  180117EFx       Rx   d 8 10 02 00 7D 00 7D 00 7D
 13.299115 1  180217EFx       Rx   d 8 38 37 00 84 00 00 00 00
 13.392904 1  180117EFx       Rx   d 8 11 02 00 7D 00 7D 00 7D
 13.403501 1  180217EFx       Rx   d 8 38 37 00 84 00 00 00 10
 13.490322 1  180117EFx       Rx   d 8 11 02 00 7D 00 7D 00 7D
 13.490322 1  180217EFx       Rx   d 8 38 37 00 84 00 00 00 20
 13.590572 1  180117EFx       Rx   d 8 11 02 00 7D 00 7D 00 7D
 13.599010 1  180217EFx       Rx   d 8 38 37 00 84 00 00 00 30
 13.698291 1  180117EFx       Rx   d 8 10 02 00 7D 00 7D 00 7D
 13.699028 1  180217EFx       Rx   d 8 38 37 00 84 00 00 00 40
 13.797447 1  180117EFx       Rx   d 8 11 02 00 7D 00 7D 00 7D
 13.799191 1  180217EFx       Rx   d 8 38 37 00 84 00 00 00 50
 13.888301 1  180117EFx       Rx   d 8 11 02 00 7D 00 7D 00 7D
 13.888301 1  180217EFx       Rx   d 8 38 37 00 84 00 00 00 60
 13.990248 1  180117EFx       Rx   d 8 11 02 00 7D 00 7D 00 7D
 13.999164 1  180217EFx       Rx   d 8 38 37 00 84 00 00 00 70
 14.084005 1  180117EFx       Rx   d 8 11 02 00 7D 00 7D 00 7D
 14.098954 1  180217EFx       Rx   d 8 38 37 00 84 00 00 00 80
 14.184544 1  180117EFx       Rx   d 8 10 02 00 7D 00 7D 00 7D
 14.199058 1  180217EFx       Rx   d 8 38 37 00 84 00 00 00 90
 14.291556 1  180117EFx       Rx   d 8 11 02 00 7D 00 7D 00 7D
 14.291556 1  180217EFx       Rx   d 8 38 37 00 84 00 00 00 A0
 14.385828 1  180117EFx       Rx   d 8 11 02 00 7D 00 7D 00 7D
 14.403093 1  180217EFx       Rx   d 8 38 37 00 84 00 00 00 B0
 14.497557 1  180117EFx       Rx   d 8 11 02 00 7D 00 7D 00 7D
 14.498741 1  180217EFx       Rx   d 8 38 37 00 84 00 00 00 C0
 14.590410 1  180117EFx       Rx   d 8 11 02 00 7D 00 7D 00 7D
 14.598885 1  180217EFx       Rx   d 8 38 37 00 84 00 00 00 D0
 14.684067 1  180117EFx       Rx   d 8 10 02 00 7D 00 7D 00 7D
 14.698948 1  180217EFx       Rx   d 8 38 37 00 84 00 00 00 E0
 14.792173 1  180117EFx       Rx   d 8 11 02 00 7D 00 7D 00 7D
 14.792173 1  180217EFx       Rx   d 8 38 37 00 84 00 00 00 F0
 14.890837 1  180117EFx       Rx   d 8 10 02 00 7D 00 7D 00 7D
 14.898995 1  180217EFx       Rx   d 8 38 37 00 84 00 00 00 00
 14.985238 1  180117EFx       Rx   d 8 11 02 00 7D 00 7D 00 7D
 14.999019 1  180217EFx       Rx   d 8 38 37 00 84 00 00 00 10
 15.085372 1  180117EFx       Rx   d 8 10 02 00 7D 00 7D 00 7D
 15.098377 1  180217EFx       Rx   d 8 38 37 00 84 00 00 00 20
 15.188213 1  180117EFx       Rx   d 8 11 02 00 7D 00 7D 00 7D
 15.202253 1  180217EFx       Rx   d 8 38 37 00 84 00 00 00 30
 15.290321 1  180117EFx       Rx   d 8 11 02 00 7D 00 7D 00 7D
 15.290321 1  180217EFx       Rx   d 8 38 37 00 84 00 00 00 40
 15.390353 1  180117EFx       Rx   d 8 10 02 00 7D 00 7D 00 7D
 15.390353 1  180217EFx       Rx   d 8 38 37 00 84 00 00 00 50
 15.483619 1  180117EFx       Rx   d 8 11 02 00 7D 00 7D 00 7D
 15.498885 1  180217EFx       Rx   d 8 38 37 00 84 00 00 00 60
 15.594087 1  180117EFx       Rx   d 8 11 02 00 7D 00 7D 00 7D
 15.598723 1  180217EFx       Rx   d 8 38 37 00 84 00 00 00 70
 15.697972 1  180117EFx       Rx   d 8 11 02 00 7D 00 7D 00 7D
 15.697972 1  180217EFx       Rx   d 8 38 37 00 84 00 00 00 80
 15.795103 1  180117EFx       Rx   d 8 10 02 00 7D 00 7D 00 7D
 15.798802 1  180217EFx       Rx   d 8 38 37 00 84 00 00 00 90
 15.898102 1  180117EFx       Rx   d 8 11 02 00 7D 00 7D 00 7D
 15.902252 1  180217EFx       Rx   d 8 38 37 00 84 00 00 00 A0
 15.997747 1  180117EFx       Rx   d 8 10 02 00 7D 00 7D 00 7D
 16.002245 1  180217EFx       Rx   d 8 38 37 00 84 00 00 00 B0
 16.096212 1  180117EFx       Rx   d 8 10 02 00 7D 00 7D 00 7D
 16.099474 1  180217EFx       Rx   d 8 38 37 00 84 00 00 00 C0
 16.192908 1  180117EFx       Rx   d 8 11 02 00 7D 00 7D 00 7D
 16.198730 1  180217EFx       Rx   d 8 38 37 00 84 00 00 00 D0
 16.288729 1  180117EFx       Rx   d 8 10 02 00 7D 00 7D 00 7D
 16.298331 1  180217EFx       Rx   d 8 38 37 00 84 00 00 00 E0
 16.397978 1  180117EFx       Rx   d 8 10 02 00 7D 00 7D 00 7D
 16.402467 1  180217EFx       Rx   d 8 38 37 00 84 00 00 00 F0
 16.487540 1  180117EFx       Rx   d 8 11 02 00 7D 00 7D 00 7D
 16.487540 1  180217EFx       Rx   d 8 38 37 00 84 00 00 00 00
 16.594085 1  180117EFx       Rx   d 8 11 02 00 7D 00 7D 00 7D
 16.598530 1  180217EFx       Rx   d 8 38 37 00 84 00 00 00 10
 16.683671 1  180117EFx       Rx   d 8 11 02 00 7D 00 7D 00 7D
 16.698712 1  180217EFx       Rx   d 8 38 37 00 84 00 00 00 20
 16.782997 1  180117EFx       Rx   d 8 11 02 00 7D 00 7D 00 7D
 16.798736 1  180217EFx       Rx   d 8 38 37 00 84 00 00 00 30
 16.884340 1  180117EFx       Rx   d 8 10 02 00 7D 00 7D 00 7D
 16.902464 1  180217EFx       Rx   d 8 38 37 00 84 00 00 00 40
 16.997916 1  180117EFx       Rx   d 8 11 02 00 7D 00 7D 00 7D
 17.002061 1  180217EFx       Rx   d 8 38 37 00 84 00 00 00 50
 17.090904 1  180117EFx       Rx   d 8 10 02 00 7D 00 7D 00 7D
 17.099565 1  180217EFx       Rx   d 8 38 37 00 84 00 00 00 60
 17.191279 1  180117EFx       Rx   d 8 10 02 00 7D 00 7D 00 7D
 17.198429 1  180217EFx       Rx   d 8 38 37 00 84 00 00 00 70
 17.292434 1  180117EFx       Rx   d 8 11 02 00 7D 00 7D 00 7D
 17.298229 1  180217EFx       Rx   d 8 38 37 00 84 00 00 00 80
 17.384038 1  180117EFx       Rx   d 8 11 02 00 7D 00 7D 00 7D
 17.398219 1  180217EFx       Rx   d 8 38 37 00 84 00 00 00 90
 17.497671 1  180117EFx       Rx   d 8 11 02 00 7D 00 7D 00 7D
 17.497671 1  180217EFx       Rx   d 8 38 37 00 84 00 00 00 A0
 17.594856 1  180117EFx       Rx   d 8 11 02 00 7D 00 7D 00 7D
 17.600160 1  180217EFx       Rx   d 8 38 37 00 84 00 00 00 B0
 17.691321 1  180117EFx       Rx   d 8 11 02 00 7D 00 7D 00 7D
 17.700379 1  180217EFx       Rx   d 8 38 37 00 84 00 00 00 C0
 17.797633 1  180117EFx       Rx   d 8 11 02 00 7D 00 7D 00 7D
 17.800195 1  180217EFx       Rx   d 8 38 37 00 84 00 00 00 D0
 17.897830 1  180117EFx       Rx   d 8 11 02 00 7D 00 7D 00 7D
 17.900910 1  180217EFx       Rx   d 8 38 37 00 84 00 00 00 E0
 17.989479 1  180117EFx       Rx   d 8 11 02 00 7D 00 7D 00 7D
 17.998532 1  180217EFx       Rx   d 8 38 37 00 84 00 00 00 F0
 18.094257 1  180117EFx       Rx   d 8 11 02 00 7D 00 7D 00 7D
 18.098356 1  180217EFx       Rx   d 8 38 37 00 84 00 00 00 00
 18.194706 1  180117EFx       Rx   d 8 11 02 00 7D 00 7D 00 7D
 18.194706 1  180217EFx       Rx   d 8 38 37 00 84 00 00 00 10
 18.292032 1  180117EFx       Rx   d 8 10 02 00 7D 00 7D 00 7D
 18.298568 1  180217EFx       Rx   d 8 38 37 00 84 00 00 00 20
 18.397696 1  180117EFx       Rx   d 8 10 02 00 7D 00 7D 00 7D
 18.398481 1  180217EFx       Rx   d 8 38 37 00 84 00 00 00 30
 18.483363 1  180117EFx       Rx   d 8 11 02 00 7D 00 7D 00 7D
 18.498538 1  180217EFx       Rx   d 8 38 37 00 84 00 00 00 40
 18.596372 1  180117EFx       Rx   d 8 10 02 00 7D 00 7D 00 7D
 18.596372 1  180217EFx       Rx   d 8 38 37 00 84 00 00 00 50
 18.697858 1  180117EFx       Rx   d 8 11 02 00 7D 00 7D 00 7D
 18.703097 1  180217EFx       Rx   d 8 38 37 00 84 00 00 00 60
 18.797940 1  180117EFx       Rx   d 8 11 02 00 7D 00 7D 00 7D
 18.797940 1  180217EFx       Rx   d 8 38 37 00 84 00 00 00 70
 18.885902 1  180117EFx       Rx   d 8 11 02 00 7D 00 7D 00 7D
 18.898452 1  180217EFx       Rx   d 8 38 37 00 84 00 00 00 80
 18.997473 1  180117EFx       Rx   d 8 11 02 00 7D 00 7D 00 7D
 18.997473 1  180217EFx       Rx   d 8 38 37 00 84 00 00 00 90
 19.084370 1  180117EFx       Rx   d 8 11 02 00 7D 00 7D 00 7D
 19.102497 1  180217EFx       Rx   d 8 38 37 00 84 00 00 00 A0
 19.197670 1  180117EFx       Rx   d 8 11 02 00 7D 00 7D 00 7D
 19.202310 1  180217EFx       Rx   d 8 38 37 00 84 00 00 00 B0
 19.286346 1  180117EFx       Rx   d 8 11 02 00 7D 00 7D 00 7D
 19.298465 1  180217EFx       Rx   d 8 38 37 00 84 00 00 00 C0
 19.385729 1  180117EFx       Rx   d 8 10 02 00 7D 00 7D 00 7D
 19.398470 1  180217EFx       Rx   d 8 38 37 00 84 00 00 00 D0
 19.490971 1  180117EFx       Rx   d 8 11 02 00 7D 00 7D 00 7D
 19.498219 1  180217EFx       Rx   d 8 38 37 00 84 00 00 00 E0
 19.582356 1  180117EFx       Rx   d 8 11 02 00 7D 00 7D 00 7D
 19.602067 1  180217EFx       Rx   d 8 38 37 00 84 00 00 00 F0
 19.697602 1  180117EFx       Rx   d 8 10 02 00 7D 00 7D 00 7D
 19.701988 1  180217EFx       Rx   d 8 38 37 00 84 00 00 00 00
 19.797618 1  180117EFx       Rx   d 8 11 02 00 7D 00 7D 00 7D
