date Sat May 16 16:06:50.546 2026
base hex  timestamps absolute
internal events logged
Begin Triggerblock Sat May 16 16:06:50.629 2026
 0.000000 Start of measurement
 0.000000 1  180117EFx       Rx   d 8 11 02 00 7D 00 7D 00 7D
 0.004230 1  180217EFx       Rx   d 8 38 37 00 84 00 00 00 C0
 0.096896 1  180117EFx       Rx   d 8 11 02 00 7D 00 7D 00 7D
 0.110388 1  180217EFx       Rx   d 8 38 37 00 84 00 00 00 D0
 0.198786 1  180117EFx       Rx   d 8 11 02 00 7D 00 7D 00 7D
 0.208053 1  180217EFx       Rx   d 8 38 37 00 84 00 00 00 E0
 0.303214 1  180117EFx       Rx   d 8 11 02 00 7D 00 7D 00 7D
 0.305009 1  180217EFx       Rx   d 8 38 37 00 84 00 00 00 F0
 0.389784 1  180117EFx       Rx   d 8 11 02 00 7D 00 7D 00 7D
 0.404164 1  180217EFx       Rx   d 8 38 37 00 84 00 00 00 00
 0.495158 1  180117EFx       Rx   d 8 11 02 00 7D 00 7D 00 7D
 0.504164 1  180217EFx       Rx   d 8 38 37 00 84 00 00 00 10
 0.602880 1  180117EFx       Rx   d 8 11 02 00 7D 00 7D 00 7D
 0.603877 1  180217EFx       Rx   d 8 38 37 00 84 00 00 00 20
 0.690867 1  180117EFx       Rx   d 8 11 02 00 7D 00 7D 00 7D
 0.707967 1  180217EFx       Rx   d 8 38 37 00 84 00 00 00 30
 0.795546 1  180117EFx       Rx   d 8 11 02 00 7D 00 7D 00 7D
 0.795546 1  180217EFx       Rx   d 8 38 37 00 84 00 00 00 40
 0.890413 1  180117EFx       Rx   d 8 11 02 00 7D 00 7D 00 7D
 0.904193 1  180217EFx       Rx   d 8 38 37 00 84 00 00 00 50
 0.994573 1  180117EFx       Rx   d 8 11 02 00 7D 00 7D 00 7D
 1.004198 1  180217EFx       Rx   d 8 38 37 00 84 00 00 00 60
 1.102904 1  180117EFx       Rx   d 8 11 02 00 7D 00 7D 00 7D
 1.103441 1  180217EFx       Rx   d 8 38 37 00 84 00 00 00 70
 1.203137 1  180117EFx       Rx   d 8 11 02 00 7D 00 7D 00 7D
 1.205748 1  180217EFx       Rx   d 8 38 37 00 84 00 00 00 80
 1.293202 1  180117EFx       Rx   d 8 11 02 00 7D 00 7D 00 7D
 1.303989 1  180217EFx       Rx   d 8 38 37 00 84 00 00 00 90
 1.389566 1  180117EFx       Rx   d 8 11 02 00 7D 00 7D 00 7D
 1.404064 1  180217EFx       Rx   d 8 38 37 00 84 00 00 00 A0
 1.495615 1  180117EFx       Rx   d 8 11 02 00 7D 00 7D 00 7D
 1.503935 1  180217EFx       Rx   d 8 38 37 00 84 00 00 00 B0
 1.588432 1  180117EFx       Rx   d 8 11 02 00 7D 00 7D 00 7D
 1.603524 1  180217EFx       Rx   d 8 38 37 00 84 00 00 00 C0
 1.690032 1  180117EFx       Rx   d 8 11 02 00 7D 00 7D 00 7D
 1.707922 1  180217EFx       Rx   d 8 38 37 00 84 00 00 00 D0
 1.801010 1  180117EFx       Rx   d 8 11 02 00 7D 00 7D 00 7D
 1.801010 1  180217EFx       Rx   d 8 38 37 00 84 00 00 00 E0
 1.890329 1  180117EFx       Rx   d 8 11 02 00 7D 00 7D 00 7D
 1.905813 1  180217EFx       Rx   d 8 38 37 00 84 00 00 00 F0
 1.993745 1  180117EFx       Rx   d 8 11 02 00 7D 00 7D 00 7D
 2.003920 1  180217EFx       Rx   d 8 38 37 00 84 00 00 00 00
 2.102058 1  180117EFx       Rx   d 8 11 02 00 7D 00 7D 00 7D
 2.103090 1  180217EFx       Rx   d 8 38 37 00 84 00 00 00 10
 2.203076 1  180117EFx       Rx   d 8 11 02 00 7D 00 7D 00 7D
 2.203076 1  180217EFx       Rx   d 8 38 37 00 84 00 00 00 20
 2.301276 1  180117EFx       Rx   d 8 11 02 00 7D 00 7D 00 7D
 2.303936 1  180217EFx       Rx   d 8 38 37 00 84 00 00 00 30
 2.402375 1  180117EFx       Rx   d 8 11 02 00 7D 00 7D 00 7D
 2.409539 1  180217EFx       Rx   d 8 38 37 00 84 00 00 00 40
 2.498754 1  180117EFx       Rx   d 8 11 02 00 7D 00 7D 00 7D
 2.508961 1  180217EFx       Rx   d 8 38 37 00 84 00 00 00 50
 2.602716 1  180117EFx       Rx   d 8 11 02 00 7D 00 7D 00 7D
 2.606668 1  180217EFx       Rx   d 8 38 37 00 84 00 00 00 60
 2.702486 1  180117EFx       Rx   d 8 11 02 00 7D 00 7D 00 7D
 2.703310 1  180217EFx       Rx   d 8 38 37 00 84 00 00 00 70
 2.802825 1  180117EFx       Rx   d 8 11 02 00 7D 00 7D 00 7D
 2.803600 1  180217EFx       Rx   d 8 38 37 00 84 00 00 00 80
 2.902678 1  180117EFx       Rx   d 8 11 02 00 7D 00 7D 00 7D
 2.909106 1  180217EFx       Rx   d 8 38 37 00 84 00 00 00 90
 3.002327 1  180117EFx       Rx   d 8 11 02 00 7D 00 7D 00 7D
 3.005376 1  180217EFx       Rx   d 8 38 37 00 84 00 00 00 A0
 3.100867 1  180117EFx       Rx   d 8 11 02 00 7D 00 7D 00 7D
 3.103693 1  180217EFx       Rx   d 8 38 37 00 84 00 00 00 B0
 3.197192 1  180117EFx       Rx   d 8 11 02 00 7D 00 7D 00 7D
 3.203397 1  180217EFx       Rx   d 8 38 37 00 84 00 00 00 C0
 3.292137 1  180117EFx       Rx   d 8 11 02 00 7D 00 7D 00 7D
 3.303363 1  180217EFx       Rx   d 8 38 37 00 84 00 00 00 D0
 3.395597 1  180117EFx       Rx   d 8 11 02 00 7D 00 7D 00 7D
 3.395597 1  180217EFx       Rx   d 8 38 37 00 84 00 00 00 E0
 3.493506 1  180117EFx       Rx   d 8 11 02 00 7D 00 7D 00 7D
 3.503771 1  180217EFx       Rx   d 8 38 37 00 84 00 00 00 F0
 3.597893 1  180117EFx       Rx   d 8 11 02 00 7D 00 7D 00 7D
 3.603702 1  180217EFx       Rx   d 8 38 37 00 84 00 00 00 00
 3.702716 1  180117EFx       Rx   d 8 11 02 00 7D 00 7D 00 7D
 3.703675 1  180217EFx       Rx   d 8 38 37 00 84 00 00 00 10
 3.797734 1  180117EFx       Rx   d 8 11 02 00 7D 00 7D 00 7D
 3.803746 1  180217EFx       Rx   d 8 38 37 00 84 00 00 00 20
 3.893685 1  180117EFx       Rx   d 8 11 02 00 7D 00 7D 00 7D
 3.893685 1  180217EFx       Rx   d 8 38 37 00 84 00 00 00 30
 4.002349 1  180117EFx       Rx   d 8 11 02 00 7D 00 7D 00 7D
 4.007649 1  180217EFx       Rx   d 8 38 37 00 84 00 00 00 40
 4.097899 1  180117EFx       Rx   d 8 11 02 00 7D 00 7D 00 7D
 4.103616 1  180217EFx       Rx   d 8 38 37 00 84 00 00 00 50
 4.204921 1  180117EFx       Rx   d 8 11 02 00 7D 00 7D 00 7D
 4.205923 1  180217EFx       Rx   d 8 38 37 00 84 00 00 00 60
 4.295671 1  180117EFx       Rx   d 8 11 02 00 7D 00 7D 00 7D
 4.303316 1  180217EFx       Rx   d 8 38 37 00 84 00 00 00 70
 4.394887 1  180117EFx       Rx   d 8 11 02 00 7D 00 7D 00 7D
 4.394887 1  180217EFx       Rx   d 8 38 37 00 84 00 00 00 80
 4.497389 1  180117EFx       Rx   d 8 11 02 00 7D 00 7D 00 7D
 4.497389 1  180217EFx       Rx   d 8 38 37 00 84 00 00 00 90
 4.594009 1  180117EFx       Rx   d 8 11 02 9E 7C 09 7E 00 7D
 4.603713 1  180217EFx       Rx   d 8 38 37 09 94 00 00 00 A0
 4.692184 1  180117EFx       Rx   d 8 11 02 BA 7C 02 7E F9 7E
 4.703570 1  180217EFx       Rx   d 8 38 37 08 94 00 00 00 B0
 4.800095 1  180117EFx       Rx   d 8 10 02 9C 7C 35 7D 01 80
 4.800095 1  180217EFx       Rx   d 8 38 37 01 94 00 00 00 C0
 4.894684 1  180117EFx       Rx   d 8 12 02 99 7C 1B 7D C2 7F
 4.894684 1  180217EFx       Rx   d 8 38 37 00 84 00 00 00 D0
 4.999272 1  180117EFx       Rx   d 8 11 02 98 7C 09 7D 4D 7F
 4.999272 1  180217EFx       Rx   d 8 38 37 00 84 00 00 00 E0
 5.095644 1  180117EFx       Rx   d 8 11 02 99 7C 07 7D EA 7E
 5.103565 1  180217EFx       Rx   d 8 38 37 00 84 00 00 00 F0
 5.202194 1  180117EFx       Rx   d 8 12 02 99 7C 09 7D 92 7E
 5.203040 1  180217EFx       Rx   d 8 38 37 00 84 00 00 00 00
 5.302054 1  180117EFx       Rx   d 8 12 02 98 7C 0D 7D 42 7E
 5.303010 1  180217EFx       Rx   d 8 38 37 00 84 00 00 00 10
 5.402199 1  180117EFx       Rx   d 8 12 02 97 7C 18 7D FC 7D
 5.405402 1  180217EFx       Rx   d 8 38 37 00 84 00 00 00 20
 5.502479 1  180117EFx       Rx   d 8 12 02 99 7C 12 7D C2 7D
 5.502827 1  180217EFx       Rx   d 8 38 37 00 84 00 00 00 30
 5.602315 1  180117EFx       Rx   d 8 12 02 96 7C F6 7C 96 7D
 5.602315 1  180217EFx       Rx   d 8 38 37 00 84 00 00 00 40
 5.699384 1  180117EFx       Rx   d 8 11 02 98 7C 05 7D 80 7D
 5.699384 1  180217EFx       Rx   d 8 38 37 00 84 00 00 00 50
 5.800674 1  180117EFx       Rx   d 8 11 02 00 7D 00 7D 00 7D
 5.803414 1  180217EFx       Rx   d 8 38 37 00 84 00 00 00 60
 5.891265 1  180117EFx       Rx   d 8 11 02 00 7D 00 7D 00 7D
 5.903425 1  180217EFx       Rx   d 8 38 37 00 84 00 00 00 70
 6.002437 1  180117EFx       Rx   d 8 11 02 00 7D 00 7D 00 7D
 6.007210 1  180217EFx       Rx   d 8 38 37 00 84 00 00 00 80
 6.093771 1  180117EFx       Rx   d 8 11 02 00 7D 00 7D 00 7D
 6.103459 1  180217EFx       Rx   d 8 38 37 00 84 00 00 00 90
 6.201692 1  180117EFx       Rx   d 8 11 02 00 7D 00 7D 00 7D
 6.201692 1  180217EFx       Rx   d 8 38 37 00 84 00 00 00 A0
 6.301040 1  180117EFx       Rx   d 8 11 02 9B 7C 4F 7D 00 7D
 6.303422 1  180217EFx       Rx   d 8 38 37 03 94 00 00 00 B0
 6.402286 1  180117EFx       Rx   d 8 11 02 C2 7C DF 7E 8B 7E
 6.408696 1  180217EFx       Rx   d 8 38 37 0A 94 00 00 00 C0
 6.498482 1  180117EFx       Rx   d 8 10 02 B1 7C 3E 7E E0 7F
 6.498482 1  180217EFx       Rx   d 8 38 37 0B 94 00 00 00 D0
 6.593822 1  180117EFx       Rx   d 8 10 02 AB 7C 70 7D 97 81
 6.603238 1  180217EFx       Rx   d 8 38 37 04 94 00 00 00 E0
 6.700313 1  180117EFx       Rx   d 8 11 02 9A 7C 15 7D 3F 81
 6.703269 1  180217EFx       Rx   d 8 38 37 00 84 00 00 00 F0
 6.794795 1  180117EFx       Rx   d 8 11 02 96 7C 0F 7D B8 80
 6.803296 1  180217EFx       Rx   d 8 38 37 00 84 00 00 00 00
 6.902276 1  180117EFx       Rx   d 8 11 02 98 7C 26 7D 42 80
 6.902276 1  180217EFx       Rx   d 8 38 37 00 84 00 00 00 10
 6.991411 1  180117EFx       Rx   d 8 11 02 99 7C 28 7D D5 7F
 7.006889 1  180217EFx       Rx   d 8 38 37 00 84 00 00 00 20
 7.094467 1  180117EFx       Rx   d 8 11 02 99 7C 1A 7D 6A 7F
 7.103256 1  180217EFx       Rx   d 8 38 37 00 84 00 00 00 30
 7.202307 1  180117EFx       Rx   d 8 11 02 96 7C 28 7D 0B 7F
 7.202307 1  180217EFx       Rx   d 8 38 37 00 84 00 00 00 40
 7.302239 1  180117EFx       Rx   d 8 11 02 9B 7C 16 7D B0 7E
 7.302239 1  180217EFx       Rx   d 8 38 37 00 84 00 00 00 50
 7.396715 1  180117EFx       Rx   d 8 11 02 97 7C 0C 7D 5B 7E
 7.406580 1  180217EFx       Rx   d 8 38 37 00 84 00 00 00 60
 7.492872 1  180117EFx       Rx   d 8 12 02 98 7C 09 7D 12 7E
 7.504801 1  180217EFx       Rx   d 8 38 37 00 84 00 00 00 70
 7.591846 1  180117EFx       Rx   d 8 12 02 99 7C FD 7C D8 7D
 7.602655 1  180217EFx       Rx   d 8 38 37 00 84 00 00 00 80
 7.698134 1  180117EFx       Rx   d 8 11 02 9A 7C 0B 7D A8 7D
 7.703199 1  180217EFx       Rx   d 8 38 37 00 84 00 00 00 90
 7.795521 1  180117EFx       Rx   d 8 12 02 97 7C 15 7D 8E 7D
 7.802804 1  180217EFx       Rx   d 8 38 37 00 84 00 00 00 A0
 7.901774 1  180117EFx       Rx   d 8 11 02 99 7C EC 7C 8E 7D
 7.903770 1  180217EFx       Rx   d 8 38 37 00 84 00 00 00 B0
 7.996345 1  180117EFx       Rx   d 8 11 02 00 7D 00 7D 00 7D
 8.002989 1  180217EFx       Rx   d 8 38 37 00 84 00 00 00 C0
 8.101936 1  180117EFx       Rx   d 8 11 02 00 7D 00 7D 00 7D
 8.101936 1  180217EFx       Rx   d 8 38 37 00 84 00 00 00 D0
 8.186657 1  180117EFx       Rx   d 8 11 02 00 7D 00 7D 00 7D
 8.202852 1  180217EFx       Rx   d 8 38 37 00 84 00 00 00 E0
 8.301791 1  180117EFx       Rx   d 8 11 02 00 7D 00 7D 00 7D
 8.303097 1  180217EFx       Rx   d 8 38 37 00 84 00 00 00 F0
 8.400355 1  180117EFx       Rx   d 8 11 02 00 7D 00 7D 00 7D
 8.408007 1  180217EFx       Rx   d 8 38 37 00 84 00 00 00 00
 8.494666 1  180117EFx       Rx   d 8 11 02 00 7D 00 7D 00 7D
 8.503262 1  180217EFx       Rx   d 8 38 37 00 84 00 00 00 10
 8.601692 1  180117EFx       Rx   d 8 11 02 00 7D 00 7D 00 7D
 8.602730 1  180217EFx       Rx   d 8 38 37 00 84 00 00 00 20
 8.702053 1  180117EFx       Rx   d 8 11 02 00 7D 00 7D 00 7D
 8.702053 1  180217EFx       Rx   d 8 38 37 00 84 00 00 00 30
 8.789793 1  180117EFx       Rx   d 8 11 02 00 7D 00 7D 00 7D
 8.803163 1  180217EFx       Rx   d 8 38 37 00 84 00 00 00 40
 8.902410 1  180117EFx       Rx   d 8 11 02 00 7D 00 7D 00 7D
 8.907415 1  180217EFx       Rx   d 8 38 37 00 84 00 00 00 50
 8.994354 1  180117EFx       Rx   d 8 11 02 00 7D 00 7D 00 7D
 8.994354 1  180217EFx       Rx   d 8 38 37 00 84 00 00 00 60
 9.101990 1  180117EFx       Rx   d 8 11 02 00 7D 00 7D 00 7D
 9.101990 1  180217EFx       Rx   d 8 38 37 00 84 00 00 00 70
 9.201452 1  180117EFx       Rx   d 8 11 02 00 7D 00 7D 00 7D
 9.202660 1  180217EFx       Rx   d 8 38 37 00 84 00 00 00 80
 9.302000 1  180117EFx       Rx   d 8 11 02 00 7D 00 7D 00 7D
 9.302000 1  180217EFx       Rx   d 8 38 37 00 84 00 00 00 90
 9.394939 1  180117EFx       Rx   d 8 11 02 00 7D 00 7D 00 7D
 9.405344 1  180217EFx       Rx   d 8 38 37 00 84 00 00 00 A0
 9.494978 1  180117EFx       Rx   d 8 11 02 00 7D 00 7D 00 7D
 9.494978 1  180217EFx       Rx   d 8 38 37 00 84 00 00 00 B0
 9.599190 1  180117EFx       Rx   d 8 11 02 00 7D 00 7D 00 7D
 9.602959 1  180217EFx       Rx   d 8 38 37 00 84 00 00 00 C0
 9.697374 1  180117EFx       Rx   d 8 11 02 00 7D 00 7D 00 7D
 9.702964 1  180217EFx       Rx   d 8 38 37 00 84 00 00 00 D0
 9.802234 1  180117EFx       Rx   d 8 11 02 00 7D 00 7D 00 7D
 9.802234 1  180217EFx       Rx   d 8 38 37 00 84 00 00 00 E0
 9.889230 1  180117EFx       Rx   d 8 11 02 00 7D 00 7D 00 7D
 9.906640 1  180217EFx       Rx   d 8 38 37 00 84 00 00 00 F0
 9.993186 1  180117EFx       Rx   d 8 11 02 00 7D 00 7D 00 7D
 9.993186 1  180217EFx       Rx   d 8 38 37 00 84 00 00 00 00
 10.093255 1  180117EFx       Rx   d 8 11 02 00 7D 00 7D 00 7D
 10.102899 1  180217EFx       Rx   d 8 38 37 00 84 00 00 00 10
 10.197432 1  180117EFx       Rx   d 8 11 02 00 7D 00 7D 00 7D
 10.202835 1  180217EFx       Rx   d 8 38 37 00 84 00 00 00 20
 10.292186 1  180117EFx       Rx   d 8 11 02 00 7D 00 7D 00 7D
 10.302878 1  180217EFx       Rx   d 8 38 37 00 84 00 00 00 30
 10.393799 1  180117EFx       Rx   d 8 11 02 00 7D 00 7D 00 7D
 10.393799 1  180217EFx       Rx   d 8 38 37 00 84 00 00 00 40
 10.494439 1  180117EFx       Rx   d 8 11 02 00 7D 00 7D 00 7D
 10.494439 1  180217EFx       Rx   d 8 38 37 00 84 00 00 00 50
 10.596884 1  180117EFx       Rx   d 8 11 02 00 7D 00 7D 00 7D
 10.602835 1  180217EFx       Rx   d 8 38 37 00 84 00 00 00 60
 10.686948 1  180117EFx       Rx   d 8 11 02 00 7D 00 7D 00 7D
 10.702872 1  180217EFx       Rx   d 8 38 37 00 84 00 00 00 70
 10.791989 1  180117EFx       Rx   d 8 11 02 00 7D 00 7D 00 7D
 10.802856 1  180217EFx       Rx   d 8 38 37 00 84 00 00 00 80
 10.890498 1  180117EFx       Rx   d 8 11 02 00 7D 00 7D 00 7D
 10.906038 1  180217EFx       Rx   d 8 38 37 00 84 00 00 00 90
 10.993373 1  180117EFx       Rx   d 8 12 02 9D 7C 31 80 00 7D
 10.993373 1  180217EFx       Rx   d 8 38 37 14 94 00 00 00 A0
 11.099136 1  180117EFx       Rx   d 8 09 02 75 7D C8 80 D6 82
 11.102702 1  180217EFx       Rx   d 8 38 37 2A 94 00 00 00 B0
 11.199628 1  180117EFx       Rx   d 8 11 02 8C 7C 85 7C 7B 85
 11.202734 1  180217EFx       Rx   d 8 38 37 00 84 00 00 00 C0
 11.290228 1  180117EFx       Rx   d 8 11 02 95 7C 17 7D 98 84
 11.302756 1  180217EFx       Rx   d 8 38 37 00 84 00 00 00 D0
 11.401790 1  180117EFx       Rx   d 8 11 02 9A 7C E8 7C EC 83
 11.406099 1  180217EFx       Rx   d 8 38 37 00 84 00 00 00 E0
 11.501625 1  180117EFx       Rx   d 8 11 02 9C 7C 1B 7D 52 83
 11.501625 1  180217EFx       Rx   d 8 38 37 00 84 00 00 00 F0
 11.601716 1  180117EFx       Rx   d 8 11 02 98 7C 29 7D CE 82
 11.601939 1  180217EFx       Rx   d 8 38 37 00 84 00 00 00 00
 11.701060 1  180117EFx       Rx   d 8 11 02 98 7C 17 7D 43 82
 11.701060 1  180217EFx       Rx   d 8 38 37 00 84 00 00 00 10
 11.795562 1  180117EFx       Rx   d 8 11 02 9B 7C 20 7D C3 81
 11.795562 1  180217EFx       Rx   d 8 38 37 00 84 00 00 00 20
 11.896895 1  180117EFx       Rx   d 8 11 02 97 7C 18 7D 4A 81
 11.902649 1  180217EFx       Rx   d 8 38 37 00 84 00 00 00 30
 11.990829 1  180117EFx       Rx   d 8 11 02 9D 7C 0E 7D D5 80
 12.002682 1  180217EFx       Rx   d 8 38 37 00 84 00 00 00 40
 12.101638 1  180117EFx       Rx   d 8 11 02 A3 7C 1A 7D 63 80
 12.102515 1  180217EFx       Rx   d 8 38 37 00 84 00 00 00 50
 12.190301 1  180117EFx       Rx   d 8 11 02 9B 7C 27 7D F9 7F
 12.207150 1  180217EFx       Rx   d 8 38 37 00 84 00 00 00 60
 12.300507 1  180117EFx       Rx   d 8 11 02 9C 7C 24 7D 93 7F
 12.303403 1  180217EFx       Rx   d 8 38 37 00 84 00 00 00 70
 12.393278 1  180117EFx       Rx   d 8 11 02 99 7C 23 7D 30 7F
 12.402592 1  180217EFx       Rx   d 8 38 37 00 84 00 00 00 80
 12.493124 1  180117EFx       Rx   d 8 11 02 99 7C EF 7C D8 7E
 12.502770 1  180217EFx       Rx   d 8 38 37 00 84 00 00 00 90
 12.600893 1  180117EFx       Rx   d 8 11 02 96 7C 12 7D 87 7E
 12.602357 1  180217EFx       Rx   d 8 38 37 00 84 00 00 00 A0
 12.688602 1  180117EFx       Rx   d 8 11 02 99 7C 05 7D 3A 7E
 12.706160 1  180217EFx       Rx   d 8 38 37 00 84 00 00 00 B0
 12.798804 1  180117EFx       Rx   d 8 11 02 99 7C FE 7C F5 7D
 12.802693 1  180217EFx       Rx   d 8 38 37 00 84 00 00 00 C0
 12.890888 1  180117EFx       Rx   d 8 11 02 98 7C 08 7D BA 7D
 12.902730 1  180217EFx       Rx   d 8 38 37 00 84 00 00 00 D0
 12.992550 1  180117EFx       Rx   d 8 11 02 98 7C 0F 7D 96 7D
 12.992550 1  180217EFx       Rx   d 8 38 37 00 84 00 00 00 E0
 13.095342 1  180117EFx       Rx   d 8 11 02 99 7C EE 7C 96 7D
 13.095342 1  180217EFx       Rx   d 8 38 37 00 84 00 00 00 F0
 13.196985 1  180117EFx       Rx   d 8 11 02 00 7D 00 7D 00 7D
 13.202516 1  180217EFx       Rx   d 8 38 37 00 84 00 00 00 00
 13.286836 1  180117EFx       Rx   d 8 11 02 00 7D 00 7D 00 7D
 13.302552 1  180217EFx       Rx   d 8 38 37 00 84 00 00 00 10
 13.386764 1  180117EFx       Rx   d 8 11 02 00 7D 00 7D 00 7D
 13.402510 1  180217EFx       Rx   d 8 38 37 00 84 00 00 00 20
 13.501833 1  180117EFx       Rx   d 8 11 02 00 7D 00 7D 00 7D
 13.506041 1  180217EFx       Rx   d 8 38 37 00 84 00 00 00 30
 13.586923 1  180117EFx       Rx   d 8 11 02 00 7D 00 7D 00 7D
 13.602425 1  180217EFx       Rx   d 8 38 37 00 84 00 00 00 40
 13.699811 1  180117EFx       Rx   d 8 11 02 00 7D 00 7D 00 7D
 13.702100 1  180217EFx       Rx   d 8 38 37 00 84 00 00 00 50
 13.798808 1  180117EFx       Rx   d 8 11 02 00 7D 00 7D 00 7D
 13.802540 1  180217EFx       Rx   d 8 38 37 00 84 00 00 00 60
 13.886749 1  180117EFx       Rx   d 8 11 02 00 7D 00 7D 00 7D
 13.902303 1  180217EFx       Rx   d 8 38 37 00 84 00 00 00 70
 13.989705 1  180117EFx       Rx   d 8 11 02 00 7D 00 7D 00 7D
 14.005128 1  180217EFx       Rx   d 8 38 37 00 84 00 00 00 80
 14.101644 1  180117EFx       Rx   d 8 11 02 00 7D 00 7D 00 7D
 14.102309 1  180217EFx       Rx   d 8 38 37 00 84 00 00 00 90
 14.201060 1  180117EFx       Rx   d 8 11 02 00 7D 00 7D 00 7D
 14.202103 1  180217EFx       Rx   d 8 38 37 00 84 00 00 00 A0
 14.300012 1  180117EFx       Rx   d 8 11 02 00 7D 00 7D 00 7D
 14.302227 1  180217EFx       Rx   d 8 38 37 00 84 00 00 00 B0
 14.398952 1  180117EFx       Rx   d 8 11 02 00 7D 00 7D 00 7D
 14.405652 1  180217EFx       Rx   d 8 38 37 00 84 00 00 00 C0
 14.497555 1  180117EFx       Rx   d 8 11 02 00 7D 00 7D 00 7D
 14.497555 1  180217EFx       Rx   d 8 38 37 00 84 00 00 00 D0
 14.596230 1  180117EFx       Rx   d 8 11 02 00 7D 00 7D 00 7D
 14.602331 1  180217EFx       Rx   d 8 38 37 00 84 00 00 00 E0
 14.696816 1  180117EFx       Rx   d 8 11 02 00 7D 00 7D 00 7D
 14.702364 1  180217EFx       Rx   d 8 38 37 00 84 00 00 00 F0
 14.801587 1  180117EFx       Rx   d 8 11 02 00 7D 00 7D 00 7D
 14.801587 1  180217EFx       Rx   d 8 38 37 00 84 00 00 00 00
 14.891681 1  180117EFx       Rx   d 8 11 02 00 7D 00 7D 00 7D
 14.891681 1  180217EFx       Rx   d 8 38 37 00 84 00 00 00 10
 14.999917 1  180117EFx       Rx   d 8 11 02 00 7D 00 7D 00 7D
 15.002324 1  180217EFx       Rx   d 8 38 37 00 84 00 00 00 20
 15.098395 1  180117EFx       Rx   d 8 11 02 00 7D 00 7D 00 7D
 15.102294 1  180217EFx       Rx   d 8 38 37 00 84 00 00 00 30
 15.189349 1  180117EFx       Rx   d 8 11 02 00 7D 00 7D 00 7D
 15.206056 1  180217EFx       Rx   d 8 38 37 00 84 00 00 00 40
 15.293537 1  180117EFx       Rx   d 8 11 02 00 7D 00 7D 00 7D
 15.293537 1  180217EFx       Rx   d 8 38 37 00 84 00 00 00 50
 15.386613 1  180117EFx       Rx   d 8 11 02 00 7D 00 7D 00 7D
 15.402346 1  180217EFx       Rx   d 8 38 37 00 84 00 00 00 60
 15.497185 1  180117EFx       Rx   d 8 11 02 00 7D 00 7D 00 7D
 15.502336 1  180217EFx       Rx   d 8 38 37 00 84 00 00 00 70
 15.596761 1  180117EFx       Rx   d 8 11 02 00 7D 00 7D 00 7D
 15.602178 1  180217EFx       Rx   d 8 38 37 00 84 00 00 00 80
 15.696709 1  180117EFx       Rx   d 8 11 02 00 7D 00 7D 00 7D
 15.702176 1  180217EFx       Rx   d 8 38 37 00 84 00 00 00 90
 15.797250 1  180117EFx       Rx   d 8 11 02 00 7D 00 7D 00 7D
 15.802159 1  180217EFx       Rx   d 8 38 37 00 84 00 00 00 A0
 29.795420 1  180117EFx       Rx   d 8 11 02 00 7D 00 7D 00 7D
 29.800476 1  180217EFx       Rx   d 8 38 37 00 84 00 00 00 60
 29.888201 1  180117EFx       Rx   d 8 11 02 00 7D 00 7D 00 7D
 29.903965 1  180217EFx       Rx   d 8 38 37 00 84 00 00 00 70
 29.990774 1  180117EFx       Rx   d 8 11 02 00 7D 00 7D 00 7D
 30.000531 1  180217EFx       Rx   d 8 38 37 00 84 00 00 00 80
 30.095460 1  180117EFx       Rx   d 8 11 02 00 7D 00 7D 00 7D
 30.100273 1  180217EFx       Rx   d 8 38 37 00 84 00 00 00 90
 30.198993 1  180117EFx       Rx   d 8 11 02 00 7D 00 7D 00 7D
 30.200152 1  180217EFx       Rx   d 8 38 37 00 84 00 00 00 A0
 30.295742 1  180117EFx       Rx   d 8 11 02 00 7D 00 7D 00 7D
 30.295742 1  180217EFx       Rx   d 8 38 37 00 84 00 00 00 B0
 30.386698 1  180117EFx       Rx   d 8 11 02 00 7D 00 7D 00 7D
 30.402144 1  180217EFx       Rx   d 8 38 37 00 84 00 00 00 C0
 30.492149 1  180117EFx       Rx   d 8 11 02 00 7D 00 7D 00 7D
 30.500310 1  180217EFx       Rx   d 8 38 37 00 84 00 00 00 D0
 30.591294 1  180117EFx       Rx   d 8 11 02 00 7D 00 7D 00 7D
 30.600283 1  180217EFx       Rx   d 8 38 37 00 84 00 00 00 E0
 30.699383 1  180117EFx       Rx   d 8 11 02 00 7D 00 7D 00 7D
 30.699383 1  180217EFx       Rx   d 8 38 37 00 84 00 00 00 F0
 30.790048 1  180117EFx       Rx   d 8 11 02 00 7D 00 7D 00 7D
 30.800337 1  180217EFx       Rx   d 8 38 37 00 84 00 00 00 00
 30.892992 1  180117EFx       Rx   d 8 11 02 00 7D 00 7D 00 7D
 30.892992 1  180217EFx       Rx   d 8 38 37 00 84 00 00 00 10
 30.990652 1  180117EFx       Rx   d 8 11 02 00 7D 00 7D 00 7D
 30.990652 1  180217EFx       Rx   d 8 38 37 00 84 00 00 00 20
 31.092825 1  180117EFx       Rx   d 8 11 02 00 7D 00 7D 00 7D
 31.100266 1  180217EFx       Rx   d 8 38 37 00 84 00 00 00 30
 31.195193 1  180117EFx       Rx   d 8 11 02 00 7D 00 7D 00 7D
 31.200275 1  180217EFx       Rx   d 8 38 37 00 84 00 00 00 40
 31.299763 1  180117EFx       Rx   d 8 11 02 00 7D 00 7D 00 7D
 31.299763 1  180217EFx       Rx   d 8 38 37 00 84 00 00 00 50
 31.386305 1  180117EFx       Rx   d 8 11 02 00 7D 00 7D 00 7D
 31.403772 1  180217EFx       Rx   d 8 38 37 00 84 00 00 00 60
 31.492713 1  180117EFx       Rx   d 8 11 02 00 7D 00 7D 00 7D
 31.492713 1  180217EFx       Rx   d 8 38 37 00 84 00 00 00 70
 31.594875 1  180117EFx       Rx   d 8 11 02 00 7D 00 7D 00 7D
 31.600194 1  180217EFx       Rx   d 8 38 37 00 84 00 00 00 80
 31.687232 1  180117EFx       Rx   d 8 11 02 00 7D 00 7D 00 7D
 31.700183 1  180217EFx       Rx   d 8 38 37 00 84 00 00 00 90
 31.788316 1  180117EFx       Rx   d 8 11 02 00 7D 00 7D 00 7D
 31.788316 1  180217EFx       Rx   d 8 38 37 00 84 00 00 00 A0
 31.886415 1  180117EFx       Rx   d 8 11 02 00 7D 00 7D 00 7D
 31.901864 1  180217EFx       Rx   d 8 38 37 00 84 00 00 00 B0
 31.998323 1  180117EFx       Rx   d 8 11 02 00 7D 00 7D 00 7D
 31.998323 1  180217EFx       Rx   d 8 38 37 00 84 00 00 00 C0
 32.098536 1  180117EFx       Rx   d 8 11 02 00 7D 00 7D 00 7D
 32.099545 1  180217EFx       Rx   d 8 38 37 00 84 00 00 00 D0
 32.196785 1  180117EFx       Rx   d 8 11 02 00 7D 00 7D 00 7D
 32.200083 1  180217EFx       Rx   d 8 38 37 00 84 00 00 00 E0
 32.299199 1  180117EFx       Rx   d 8 11 02 00 7D 00 7D 00 7D
 32.299199 1  180217EFx       Rx   d 8 38 37 00 84 00 00 00 F0
 32.399380 1  180117EFx       Rx   d 8 11 02 00 7D 00 7D 00 7D
 32.399380 1  180217EFx       Rx   d 8 38 37 00 84 00 00 00 00
 32.495561 1  180117EFx       Rx   d 8 11 02 00 7D 00 7D 00 7D
 32.495561 1  180217EFx       Rx   d 8 38 37 00 84 00 00 00 10
 32.595094 1  180117EFx       Rx   d 8 11 02 00 7D 00 7D 00 7D
 32.595094 1  180217EFx       Rx   d 8 38 37 00 84 00 00 00 20
 32.684570 1  180117EFx       Rx   d 8 11 02 00 7D 00 7D 00 7D
 32.700098 1  180217EFx       Rx   d 8 38 37 00 84 00 00 00 30
 32.791586 1  180117EFx       Rx   d 8 11 02 00 7D 00 7D 00 7D
 32.800084 1  180217EFx       Rx   d 8 38 37 00 84 00 00 00 40
 32.895453 1  180117EFx       Rx   d 8 11 02 00 7D 00 7D 00 7D
 32.900090 1  180217EFx       Rx   d 8 38 37 00 84 00 00 00 50
 32.995759 1  180117EFx       Rx   d 8 11 02 00 7D 00 7D 00 7D
 32.995759 1  180217EFx       Rx   d 8 38 37 00 84 00 00 00 60
 33.095964 1  180117EFx       Rx   d 8 11 02 00 7D 00 7D 00 7D
 33.100045 1  180217EFx       Rx   d 8 38 37 00 84 00 00 00 70
 33.198661 1  180117EFx       Rx   d 8 11 02 00 7D 00 7D 00 7D
 33.199784 1  180217EFx       Rx   d 8 38 37 00 84 00 00 00 80
 33.285406 1  180117EFx       Rx   d 8 11 02 00 7D 00 7D 00 7D
 33.304124 1  180217EFx       Rx   d 8 38 37 00 84 00 00 00 90
 33.386800 1  180117EFx       Rx   d 8 11 02 00 7D 00 7D 00 7D
 33.402242 1  180217EFx       Rx   d 8 38 37 00 84 00 00 00 A0
 33.490233 1  180117EFx       Rx   d 8 11 02 00 7D 00 7D 00 7D
 33.490233 1  180217EFx       Rx   d 8 38 37 00 84 00 00 00 B0
 33.594407 1  180117EFx       Rx   d 8 11 02 00 7D 00 7D 00 7D
 33.599960 1  180217EFx       Rx   d 8 38 37 00 84 00 00 00 C0
 33.698650 1  180117EFx       Rx   d 8 11 02 00 7D 00 7D 00 7D
 33.698650 1  180217EFx       Rx   d 8 38 37 00 84 00 00 00 D0
 33.799181 1  180117EFx       Rx   d 8 11 02 00 7D 00 7D 00 7D
 33.803632 1  180217EFx       Rx   d 8 38 37 00 84 00 00 00 E0
 33.886155 1  180117EFx       Rx   d 8 11 02 00 7D 00 7D 00 7D
 33.903610 1  180217EFx       Rx   d 8 38 37 00 84 00 00 00 F0
 33.999033 1  180117EFx       Rx   d 8 11 02 00 7D 00 7D 00 7D
 33.999033 1  180217EFx       Rx   d 8 38 37 00 84 00 00 00 00
 34.094645 1  180117EFx       Rx   d 8 11 02 00 7D 00 7D 00 7D
 34.099995 1  180217EFx       Rx   d 8 38 37 00 84 00 00 00 10
 34.187316 1  180117EFx       Rx   d 8 11 02 00 7D 00 7D 00 7D
 34.203505 1  180217EFx       Rx   d 8 38 37 00 84 00 00 00 20
 34.299211 1  180117EFx       Rx   d 8 11 02 96 7C 8A 7D 00 7D
 34.303547 1  180217EFx       Rx   d 8 38 37 03 94 00 00 00 30
 34.386130 1  180117EFx       Rx   d 8 11 02 A1 7C 56 7D 83 7D
 34.399776 1  180217EFx       Rx   d 8 38 37 02 94 00 00 00 40
 34.494012 1  180117EFx       Rx   d 8 11 02 9C 7C 43 7D C5 7D
 34.500031 1  180217EFx       Rx   d 8 38 37 01 94 00 00 00 50
 34.594554 1  180117EFx       Rx   d 8 12 02 9A 7C 07 7D 96 7D
 34.599854 1  180217EFx       Rx   d 8 38 37 00 84 00 00 00 60
 34.698778 1  180117EFx       Rx   d 8 11 02 99 7C F9 7C 92 7D
 34.699399 1  180217EFx       Rx   d 8 38 37 00 84 00 00 00 70
 34.784315 1  180117EFx       Rx   d 8 11 02 99 7C 04 7D 80 7D
 34.801093 1  180217EFx       Rx   d 8 38 37 00 84 00 00 00 80
 34.885879 1  180117EFx       Rx   d 8 11 02 98 7C 75 7D 66 7D
 34.899882 1  180217EFx       Rx   d 8 38 37 03 94 00 00 00 90
 34.998814 1  180117EFx       Rx   d 8 0F 02 DE 7C B6 7F 71 7D
 34.998814 1  180217EFx       Rx   d 8 38 37 16 94 00 00 00 A0
 35.098834 1  180117EFx       Rx   d 8 10 02 92 7C E8 7C 5D 82
 35.098834 1  180217EFx       Rx   d 8 38 37 00 84 00 00 00 B0
 35.184679 1  180117EFx       Rx   d 8 11 02 99 7C 0C 7D B8 81
 35.203253 1  180217EFx       Rx   d 8 38 37 00 84 00 00 00 C0
 35.289897 1  180117EFx       Rx   d 8 11 02 9D 7C 1D 7D 26 81
 35.289897 1  180217EFx       Rx   d 8 38 37 00 84 00 00 00 D0
 35.398342 1  180117EFx       Rx   d 8 11 02 99 7C 2C 7D A5 80
 35.399467 1  180217EFx       Rx   d 8 38 37 00 84 00 00 00 E0
 35.498289 1  180117EFx       Rx   d 8 11 02 9D 7C 32 7D 37 80
 35.499818 1  180217EFx       Rx   d 8 38 37 00 84 00 00 00 F0
 35.598109 1  180117EFx       Rx   d 8 0D 02 0D 7D FF 7E 0C 82
 35.599437 1  180217EFx       Rx   d 8 38 37 19 94 00 00 00 00
 35.684445 1  180117EFx       Rx   d 8 0A 02 7B 7D 84 7F CF 85
 35.703257 1  180217EFx       Rx   d 8 38 37 22 94 00 00 00 10
 35.786510 1  180117EFx       Rx   d 8 10 02 93 7C AB 7C 4C 87
 35.799720 1  180217EFx       Rx   d 8 38 37 00 84 00 00 00 20
 35.885800 1  180117EFx       Rx   d 8 11 02 A1 7C 33 7D 69 86
 35.899760 1  180217EFx       Rx   d 8 38 37 00 84 00 00 00 30
 35.997894 1  180117EFx       Rx   d 8 11 02 AB 7C 2F 7D B6 85
 35.999737 1  180217EFx       Rx   d 8 38 37 00 84 00 00 00 40
 36.091727 1  180117EFx       Rx   d 8 11 02 A3 7C 2E 7D 06 85
 36.099764 1  180217EFx       Rx   d 8 38 37 00 84 00 00 00 50
 36.188395 1  180117EFx       Rx   d 8 11 02 97 7C 1B 7D 70 84
 36.188395 1  180217EFx       Rx   d 8 38 37 00 84 00 00 00 60
 36.298866 1  180117EFx       Rx   d 8 11 02 99 7C F2 7C DA 83
 36.298866 1  180217EFx       Rx   d 8 38 37 00 84 00 00 00 70
 36.387190 1  180117EFx       Rx   d 8 11 02 9A 7C E4 7C 47 83
 36.399756 1  180217EFx       Rx   d 8 38 37 00 84 00 00 00 80
 36.487948 1  180117EFx       Rx   d 8 11 02 9B 7C 27 7D C0 82
 36.499840 1  180217EFx       Rx   d 8 38 37 00 84 00 00 00 90
 36.594288 1  180117EFx       Rx   d 8 11 02 97 7C 2B 7D 47 82
 36.599616 1  180217EFx       Rx   d 8 38 37 00 84 00 00 00 A0
 36.698880 1  180117EFx       Rx   d 8 11 02 9B 7C 06 7D CA 81
 36.699682 1  180217EFx       Rx   d 8 38 37 00 84 00 00 00 B0
 36.786774 1  180117EFx       Rx   d 8 11 02 9D 7C 11 7D 4E 81
 36.802754 1  180217EFx       Rx   d 8 38 37 00 84 00 00 00 C0
 36.886374 1  180117EFx       Rx   d 8 11 02 99 7C 19 7D E0 80
 36.899614 1  180217EFx       Rx   d 8 38 37 00 84 00 00 00 D0
 36.985201 1  180117EFx       Rx   d 8 11 02 9C 7C 0C 7D 72 80
 36.999628 1  180217EFx       Rx   d 8 38 37 00 84 00 00 00 E0
 37.090145 1  180117EFx       Rx   d 8 11 02 9A 7C 12 7D 04 80
 37.099703 1  180217EFx       Rx   d 8 38 37 00 84 00 00 00 F0
 37.190072 1  180117EFx       Rx   d 8 11 02 9A 7C 06 7D A1 7F
 37.199550 1  180217EFx       Rx   d 8 38 37 00 84 00 00 00 00
 37.289229 1  180117EFx       Rx   d 8 11 02 9C 7C 16 7D 3E 7F
 37.289229 1  180217EFx       Rx   d 8 38 37 00 84 00 00 00 10
 37.387251 1  180117EFx       Rx   d 8 11 02 9C 7C 15 7D EA 7E
 37.402692 1  180217EFx       Rx   d 8 38 37 00 84 00 00 00 20
 37.489951 1  180117EFx       Rx   d 8 11 02 99 7C 07 7D 96 7E
 37.489951 1  180217EFx       Rx   d 8 38 37 00 84 00 00 00 30
 37.598568 1  180117EFx       Rx   d 8 11 02 A0 7C 11 7D 4D 7E
 37.603008 1  180217EFx       Rx   d 8 38 37 00 84 00 00 00 40
 37.698176 1  180117EFx       Rx   d 8 11 02 99 7C 0B 7D 07 7E
 37.699437 1  180217EFx       Rx   d 8 38 37 00 84 00 00 00 50
 37.798553 1  180117EFx       Rx   d 8 11 02 97 7C 18 7D C9 7D
 37.798779 1  180217EFx       Rx   d 8 38 37 00 84 00 00 00 60
 37.890767 1  180117EFx       Rx   d 8 11 02 9A 7C F9 7C 9D 7D
 37.899560 1  180217EFx       Rx   d 8 38 37 00 84 00 00 00 70
 37.992093 1  180117EFx       Rx   d 8 11 02 99 7C 10 7D 8B 7D
 37.992093 1  180217EFx       Rx   d 8 38 37 00 84 00 00 00 80
 38.094040 1  180117EFx       Rx   d 8 11 02 98 7C F7 7C 8B 7D
 38.099545 1  180217EFx       Rx   d 8 38 37 00 84 00 00 00 90
 38.198575 1  180117EFx       Rx   d 8 11 02 00 7D 00 7D 00 7D
 38.199207 1  180217EFx       Rx   d 8 38 37 00 84 00 00 00 A0
 38.292839 1  180117EFx       Rx   d 8 11 02 00 7D 00 7D 00 7D
 38.292839 1  180217EFx       Rx   d 8 38 37 00 84 00 00 00 B0
 38.385318 1  180117EFx       Rx   d 8 11 02 00 7D 00 7D 00 7D
 38.402034 1  180217EFx       Rx   d 8 38 37 00 84 00 00 00 C0
 38.499337 1  180117EFx       Rx   d 8 11 02 00 7D 00 7D 00 7D
 38.506670 1  180217EFx       Rx   d 8 38 37 00 84 00 00 00 D0
 38.598410 1  180117EFx       Rx   d 8 11 02 00 7D 00 7D 00 7D
 38.601239 1  180217EFx       Rx   d 8 38 37 00 84 00 00 00 E0
 38.692450 1  180117EFx       Rx   d 8 11 02 00 7D 00 7D 00 7D
 38.698951 1  180217EFx       Rx   d 8 38 37 00 84 00 00 00 F0
 38.798370 1  180117EFx       Rx   d 8 11 02 00 7D 00 7D 00 7D
 38.798370 1  180217EFx       Rx   d 8 38 37 00 84 00 00 00 00
 38.897246 1  180117EFx       Rx   d 8 11 02 00 7D 00 7D 00 7D
 38.898731 1  180217EFx       Rx   d 8 38 37 00 84 00 00 00 10
 38.998222 1  180117EFx       Rx   d 8 11 02 00 7D 00 7D 00 7D
 38.998222 1  180217EFx       Rx   d 8 38 37 00 84 00 00 00 20
 39.097792 1  180117EFx       Rx   d 8 11 02 00 7D 00 7D 00 7D
 39.098828 1  180217EFx       Rx   d 8 38 37 00 84 00 00 00 30
 39.197859 1  180117EFx       Rx   d 8 11 02 00 7D 00 7D 00 7D
 39.199182 1  180217EFx       Rx   d 8 38 37 00 84 00 00 00 40
 39.294928 1  180117EFx       Rx   d 8 11 02 00 7D 00 7D 00 7D
 39.294928 1  180217EFx       Rx   d 8 38 37 00 84 00 00 00 50
 39.385064 1  180117EFx       Rx   d 8 11 02 00 7D 00 7D 00 7D
 39.400512 1  180217EFx       Rx   d 8 38 37 00 84 00 00 00 60
 39.484644 1  180117EFx       Rx   d 8 11 02 00 7D 00 7D 00 7D
 39.502995 1  180217EFx       Rx   d 8 38 37 00 84 00 00 00 70
 39.597526 1  180117EFx       Rx   d 8 11 02 00 7D 00 7D 00 7D
 39.598891 1  180217EFx       Rx   d 8 38 37 00 84 00 00 00 80
 39.698208 1  180117EFx       Rx   d 8 11 02 00 7D 00 7D 00 7D
 39.699074 1  180217EFx       Rx   d 8 38 37 00 84 00 00 00 90
 39.786953 1  180117EFx       Rx   d 8 11 02 00 7D 00 7D 00 7D
 39.802757 1  180217EFx       Rx   d 8 38 37 00 84 00 00 00 A0
 39.886010 1  180117EFx       Rx   d 8 11 02 00 7D 00 7D 00 7D
 39.901493 1  180217EFx       Rx   d 8 38 37 00 84 00 00 00 B0
 39.990071 1  180117EFx       Rx   d 8 11 02 00 7D 00 7D 00 7D
 39.990071 1  180217EFx       Rx   d 8 38 37 00 84 00 00 00 C0
 40.085559 1  180117EFx       Rx   d 8 11 02 00 7D 00 7D 00 7D
 40.099212 1  180217EFx       Rx   d 8 38 37 00 84 00 00 00 D0
 40.197459 1  180117EFx       Rx   d 8 11 02 00 7D 00 7D 00 7D
 40.198458 1  180217EFx       Rx   d 8 38 37 00 84 00 00 00 E0
 40.283762 1  180117EFx       Rx   d 8 11 02 00 7D 00 7D 00 7D
 40.299347 1  180217EFx       Rx   d 8 38 37 00 84 00 00 00 F0
 40.392953 1  180117EFx       Rx   d 8 11 02 00 7D 00 7D 00 7D
 40.399244 1  180217EFx       Rx   d 8 38 37 00 84 00 00 00 00
 40.496080 1  180117EFx       Rx   d 8 11 02 00 7D 00 7D 00 7D
 40.496080 1  180217EFx       Rx   d 8 38 37 00 84 00 00 00 10
 40.593978 1  180117EFx       Rx   d 8 11 02 00 7D 00 7D 00 7D
 40.599078 1  180217EFx       Rx   d 8 38 37 00 84 00 00 00 20
 40.693908 1  180117EFx       Rx   d 8 11 02 00 7D 00 7D 00 7D
 40.699157 1  180217EFx       Rx   d 8 38 37 00 84 00 00 00 30
 40.784566 1  180117EFx       Rx   d 8 11 02 00 7D 00 7D 00 7D
 40.799991 1  180217EFx       Rx   d 8 38 37 00 84 00 00 00 40
 40.891466 1  180117EFx       Rx   d 8 11 02 00 7D 00 7D 00 7D
 40.891466 1  180217EFx       Rx   d 8 38 37 00 84 00 00 00 50
 40.989454 1  180117EFx       Rx   d 8 11 02 00 7D 00 7D 00 7D
 40.999177 1  180217EFx       Rx   d 8 38 37 00 84 00 00 00 60
 41.094393 1  180117EFx       Rx   d 8 11 02 00 7D 00 7D 00 7D
 41.099132 1  180217EFx       Rx   d 8 38 37 00 84 00 00 00 70
 41.198332 1  180117EFx       Rx   d 8 11 02 00 7D 00 7D 00 7D
 41.198563 1  180217EFx       Rx   d 8 38 37 00 84 00 00 00 80
 41.291216 1  180117EFx       Rx   d 8 11 02 00 7D 00 7D 00 7D
 41.291216 1  180217EFx       Rx   d 8 38 37 00 84 00 00 00 90
 41.385958 1  180117EFx       Rx   d 8 11 02 00 7D 00 7D 00 7D
 41.402942 1  180217EFx       Rx   d 8 38 37 00 84 00 00 00 A0
 41.489359 1  180117EFx       Rx   d 8 11 02 00 7D 00 7D 00 7D
 41.489359 1  180217EFx       Rx   d 8 38 37 00 84 00 00 00 B0
 41.589741 1  180117EFx       Rx   d 8 11 02 00 7D 00 7D 00 7D
 41.599008 1  180217EFx       Rx   d 8 38 37 00 84 00 00 00 C0
 41.695720 1  180117EFx       Rx   d 8 11 02 00 7D 00 7D 00 7D
 41.699063 1  180217EFx       Rx   d 8 38 37 00 84 00 00 00 D0
 41.796520 1  180117EFx       Rx   d 8 11 02 00 7D 00 7D 00 7D
 41.799061 1  180217EFx       Rx   d 8 38 37 00 84 00 00 00 E0
 41.884689 1  180117EFx       Rx   d 8 11 02 00 7D 00 7D 00 7D
 41.898895 1  180217EFx       Rx   d 8 38 37 00 84 00 00 00 F0
 41.993585 1  180117EFx       Rx   d 8 11 02 00 7D 00 7D 00 7D
 41.993585 1  180217EFx       Rx   d 8 38 37 00 84 00 00 00 00
 42.093391 1  180117EFx       Rx   d 8 11 02 00 7D 00 7D 00 7D
 42.093391 1  180217EFx       Rx   d 8 38 37 00 84 00 00 00 10
 42.198012 1  180117EFx       Rx   d 8 11 02 00 7D 00 7D 00 7D
 42.198891 1  180217EFx       Rx   d 8 38 37 00 84 00 00 00 20
 42.296439 1  180117EFx       Rx   d 8 11 02 00 7D 00 7D 00 7D
 42.298890 1  180217EFx       Rx   d 8 38 37 00 84 00 00 00 30
 42.384418 1  180117EFx       Rx   d 8 11 02 00 7D 00 7D 00 7D
 42.398818 1  180217EFx       Rx   d 8 38 37 00 84 00 00 00 40
 42.498106 1  180117EFx       Rx   d 8 11 02 00 7D 00 7D 00 7D
 42.498106 1  180217EFx       Rx   d 8 38 37 00 84 00 00 00 50
 42.589539 1  180117EFx       Rx   d 8 11 02 00 7D 00 7D 00 7D
 42.598819 1  180217EFx       Rx   d 8 38 37 00 84 00 00 00 60
 42.698051 1  180117EFx       Rx   d 8 11 02 00 7D 00 7D 00 7D
 42.698877 1  180217EFx       Rx   d 8 38 37 00 84 00 00 00 70
 42.783693 1  180117EFx       Rx   d 8 11 02 00 7D 00 7D 00 7D
 42.798916 1  180217EFx       Rx   d 8 38 37 00 84 00 00 00 80
 42.885313 1  180117EFx       Rx   d 8 11 02 00 7D 00 7D 00 7D
 42.898847 1  180217EFx       Rx   d 8 38 37 00 84 00 00 00 90
 42.985921 1  180117EFx       Rx   d 8 11 02 00 7D 00 7D 00 7D
 43.002383 1  180217EFx       Rx   d 8 38 37 00 84 00 00 00 A0
 43.095240 1  180117EFx       Rx   d 8 11 02 00 7D 00 7D 00 7D
 43.095240 1  180217EFx       Rx   d 8 38 37 00 84 00 00 00 B0
 43.198107 1  180117EFx       Rx   d 8 11 02 00 7D 00 7D 00 7D
 43.202485 1  180217EFx       Rx   d 8 38 37 00 84 00 00 00 C0
 43.285932 1  180117EFx       Rx   d 8 11 02 00 7D 00 7D 00 7D
 43.298792 1  180217EFx       Rx   d 8 38 37 00 84 00 00 00 D0
 43.384305 1  180117EFx       Rx   d 8 11 02 00 7D 00 7D 00 7D
 43.398780 1  180217EFx       Rx   d 8 38 37 00 84 00 00 00 E0
 43.497012 1  180117EFx       Rx   d 8 11 02 00 7D 00 7D 00 7D
 43.498284 1  180217EFx       Rx   d 8 38 37 00 84 00 00 00 F0
 43.593432 1  180117EFx       Rx   d 8 11 02 00 7D 00 7D 00 7D
 43.598736 1  180217EFx       Rx   d 8 38 37 00 84 00 00 00 00
 43.688358 1  180117EFx       Rx   d 8 11 02 00 7D 00 7D 00 7D
 43.688358 1  180217EFx       Rx   d 8 38 37 00 84 00 00 00 10
 43.796645 1  180117EFx       Rx   d 8 11 02 00 7D 00 7D 00 7D
 43.799786 1  180217EFx       Rx   d 8 38 37 00 84 00 00 00 20
 43.885000 1  180117EFx       Rx   d 8 11 02 00 7D 00 7D 00 7D
 43.901534 1  180217EFx       Rx   d 8 38 37 00 84 00 00 00 30
 43.997985 1  180117EFx       Rx   d 8 11 02 00 7D 00 7D 00 7D
 44.002112 1  180217EFx       Rx   d 8 38 37 00 84 00 00 00 40
 44.089282 1  180117EFx       Rx   d 8 11 02 00 7D 00 7D 00 7D
 44.098666 1  180217EFx       Rx   d 8 38 37 00 84 00 00 00 50
 44.195385 1  180117EFx       Rx   d 8 11 02 00 7D 00 7D 00 7D
 44.198612 1  180217EFx       Rx   d 8 38 37 00 84 00 00 00 60
 44.294299 1  180117EFx       Rx   d 8 11 02 00 7D 00 7D 00 7D
 44.298659 1  180217EFx       Rx   d 8 38 37 00 84 00 00 00 70
 44.382678 1  180117EFx       Rx   d 8 11 02 00 7D 00 7D 00 7D
 44.398679 1  180217EFx       Rx   d 8 38 37 00 84 00 00 00 80
 44.487958 1  180117EFx       Rx   d 8 11 02 00 7D 00 7D 00 7D
 44.487958 1  180217EFx       Rx   d 8 38 37 00 84 00 00 00 90
 44.591576 1  180117EFx       Rx   d 8 11 02 00 7D 00 7D 00 7D
 44.602129 1  180217EFx       Rx   d 8 38 37 00 84 00 00 00 A0
 44.682913 1  180117EFx       Rx   d 8 11 02 00 7D 00 7D 00 7D
 44.698637 1  180217EFx       Rx   d 8 38 37 00 84 00 00 00 B0
 44.785804 1  180117EFx       Rx   d 8 11 02 00 7D 00 7D 00 7D
 44.798783 1  180217EFx       Rx   d 8 38 37 00 84 00 00 00 C0
 44.884388 1  180117EFx       Rx   d 8 11 02 00 7D 00 7D 00 7D
 44.898691 1  180217EFx       Rx   d 8 38 37 00 84 00 00 00 D0
 44.997662 1  180117EFx       Rx   d 8 11 02 00 7D 00 7D 00 7D
 44.997662 1  180217EFx       Rx   d 8 38 37 00 84 00 00 00 E0
 45.093118 1  180117EFx       Rx   d 8 11 02 00 7D 00 7D 00 7D
 45.098578 1  180217EFx       Rx   d 8 38 37 00 84 00 00 00 F0
 45.190886 1  180117EFx       Rx   d 8 11 02 00 7D 00 7D 00 7D
 45.190886 1  180217EFx       Rx   d 8 38 37 00 84 00 00 00 00
 45.297960 1  180117EFx       Rx   d 8 11 02 00 7D 00 7D 00 7D
 45.297960 1  180217EFx       Rx   d 8 38 37 00 84 00 00 00 10
 45.385040 1  180117EFx       Rx   d 8 11 02 00 7D 00 7D 00 7D
 45.398741 1  180217EFx       Rx   d 8 38 37 00 84 00 00 00 20
 45.494054 1  180117EFx       Rx   d 8 11 02 00 7D 00 7D 00 7D
 45.494054 1  180217EFx       Rx   d 8 38 37 00 84 00 00 00 30
 45.593402 1  180117EFx       Rx   d 8 11 02 00 7D 00 7D 00 7D
 45.593402 1  180217EFx       Rx   d 8 38 37 00 84 00 00 00 40
 45.697648 1  180117EFx       Rx   d 8 11 02 00 7D 00 7D 00 7D
 45.702584 1  180217EFx       Rx   d 8 38 37 00 84 00 00 00 50
 45.786769 1  180117EFx       Rx   d 8 11 02 00 7D 00 7D 00 7D
 45.798681 1  180217EFx       Rx   d 8 38 37 00 84 00 00 00 60
 45.891943 1  180117EFx       Rx   d 8 11 02 00 7D 00 7D 00 7D
 45.898655 1  180217EFx       Rx   d 8 38 37 00 84 00 00 00 70
 45.985596 1  180117EFx       Rx   d 8 11 02 00 7D 00 7D 00 7D
 45.998652 1  180217EFx       Rx   d 8 38 37 00 84 00 00 00 80
 46.084810 1  180117EFx       Rx   d 8 11 02 00 7D 00 7D 00 7D
 46.098161 1  180217EFx       Rx   d 8 38 37 00 84 00 00 00 90
 46.185279 1  180117EFx       Rx   d 8 11 02 95 7C 5E 7D 00 7D
 46.202145 1  180217EFx       Rx   d 8 38 37 03 94 00 00 00 A0
 46.297028 1  180117EFx       Rx   d 8 10 02 EB 7C 42 80 49 7F
 46.301378 1  180217EFx       Rx   d 8 38 37 17 94 00 00 00 B0
 46.384977 1  180117EFx       Rx   d 8 0C 02 41 7D 8B 7F 14 83
 46.398596 1  180217EFx       Rx   d 8 38 37 1A 94 00 00 00 C0
 46.494396 1  180117EFx       Rx   d 8 0B 02 48 7D AC 7E 1C 86
 46.498494 1  180217EFx       Rx   d 8 38 37 1A 94 00 00 00 D0
 46.597657 1  180117EFx       Rx   d 8 0B 02 11 7D 5D 7E 2F 88
 46.598344 1  180217EFx       Rx   d 8 38 37 16 94 00 00 00 E0
 46.696005 1  180117EFx       Rx   d 8 0C 02 04 7D DB 7D 6A 89
 46.698189 1  180217EFx       Rx   d 8 38 37 0F 94 00 00 00 F0
 46.797110 1  180117EFx       Rx   d 8 10 02 A5 7C 30 7D 04 89
 46.801829 1  180217EFx       Rx   d 8 38 37 00 84 00 00 00 00
 46.884671 1  180117EFx       Rx   d 8 10 02 9F 7C 21 7D 54 88
 46.898333 1  180217EFx       Rx   d 8 38 37 00 84 00 00 00 10
 46.991377 1  180117EFx       Rx   d 8 11 02 A4 7C 64 7D A4 87
 46.998390 1  180217EFx       Rx   d 8 38 37 00 84 00 00 00 20
 47.085302 1  180117EFx       Rx   d 8 10 02 AF 7C 44 7D FF 86
 47.098230 1  180217EFx       Rx   d 8 38 37 00 84 00 00 00 30
 47.184197 1  180117EFx       Rx   d 8 11 02 A2 7C 4C 7D 53 86
 47.198256 1  180217EFx       Rx   d 8 38 37 00 84 00 00 00 40
 47.285477 1  180117EFx       Rx   d 8 11 02 9F 7C 1A 7D A0 85
 47.302047 1  180217EFx       Rx   d 8 38 37 00 84 00 00 00 50
 47.397377 1  180117EFx       Rx   d 8 11 02 9B 7C 13 7D 0A 85
 47.397377 1  180217EFx       Rx   d 8 38 37 00 84 00 00 00 60
 47.488826 1  180117EFx       Rx   d 8 11 02 A1 7C 25 7D 70 84
 47.498319 1  180217EFx       Rx   d 8 38 37 00 84 00 00 00 70
 47.592508 1  180117EFx       Rx   d 8 11 02 9C 7C 57 7D DA 83
 47.598231 1  180217EFx       Rx   d 8 38 37 00 84 00 00 00 80
 47.697168 1  180117EFx       Rx   d 8 11 02 96 7C 2F 7D 4B 83
 47.697968 1  180217EFx       Rx   d 8 38 37 00 84 00 00 00 90
 47.793662 1  180117EFx       Rx   d 8 11 02 99 7C 09 7D CE 82
 47.793662 1  180217EFx       Rx   d 8 38 37 00 84 00 00 00 A0
 47.884059 1  180117EFx       Rx   d 8 11 02 A0 7C 24 7D 4E 82
 47.901759 1  180217EFx       Rx   d 8 38 37 00 84 00 00 00 B0
 47.989353 1  180117EFx       Rx   d 8 11 02 97 7C 13 7D D5 81
 47.998303 1  180217EFx       Rx   d 8 38 37 00 84 00 00 00 C0
 48.092974 1  180117EFx       Rx   d 8 11 02 9E 7C 0D 7D 60 81
 48.098156 1  180217EFx       Rx   d 8 38 37 00 84 00 00 00 D0
 48.197356 1  180117EFx       Rx   d 8 11 02 99 7C ED 7C EF 80
 48.197356 1  180217EFx       Rx   d 8 38 37 00 84 00 00 00 E0
 48.287119 1  180117EFx       Rx   d 8 11 02 9D 7C 1E 7D 81 80
 48.298828 1  180217EFx       Rx   d 8 38 37 00 84 00 00 00 F0
 48.384073 1  180117EFx       Rx   d 8 11 02 9C 7C 1F 7D 1A 80
 48.401358 1  180217EFx       Rx   d 8 38 37 00 84 00 00 00 00
 48.489038 1  180117EFx       Rx   d 8 11 02 96 7C 09 7D BB 7F
 48.498153 1  180217EFx       Rx   d 8 38 37 00 84 00 00 00 10
 48.592954 1  180117EFx       Rx   d 8 11 02 98 7C 28 7D 5C 7F
 48.598053 1  180217EFx       Rx   d 8 38 37 00 84 00 00 00 20
 48.697220 1  180117EFx       Rx   d 8 11 02 9C 7C F3 7C 04 7F
 48.697220 1  180217EFx       Rx   d 8 38 37 00 84 00 00 00 30
 48.788491 1  180117EFx       Rx   d 8 11 02 A1 7C 0C 7D B0 7E
 48.788491 1  180217EFx       Rx   d 8 38 37 00 84 00 00 00 40
 48.892024 1  180117EFx       Rx   d 8 11 02 9A 7C 17 7D 63 7E
 48.892024 1  180217EFx       Rx   d 8 38 37 00 84 00 00 00 50
 48.995818 1  180117EFx       Rx   d 8 11 02 9B 7C F0 7C 21 7E
 48.998801 1  180217EFx       Rx   d 8 38 37 00 84 00 00 00 60
 49.093269 1  180117EFx       Rx   d 8 11 02 99 7C 12 7D E3 7D
 49.098033 1  180217EFx       Rx   d 8 38 37 00 84 00 00 00 70
 49.197445 1  180117EFx       Rx   d 8 11 02 98 7C 11 7D AF 7D
 49.198065 1  180217EFx       Rx   d 8 38 37 00 84 00 00 00 80
 49.283154 1  180117EFx       Rx   d 8 11 02 9A 7C 0E 7D 99 7D
 49.302019 1  180217EFx       Rx   d 8 38 37 00 84 00 00 00 90
 49.384336 1  180117EFx       Rx   d 8 11 02 9A 7C F5 7C 99 7D
 49.398132 1  180217EFx       Rx   d 8 38 37 00 84 00 00 00 A0
 49.488535 1  180117EFx       Rx   d 8 11 02 00 7D 00 7D 00 7D
 49.498122 1  180217EFx       Rx   d 8 38 37 00 84 00 00 00 B0
 49.593548 1  180117EFx       Rx   d 8 10 02 00 7D 00 7D 00 7D
 49.598007 1  180217EFx       Rx   d 8 38 37 00 84 00 00 00 C0
 49.694843 1  180117EFx       Rx   d 8 11 02 00 7D 00 7D 00 7D
 49.698023 1  180217EFx       Rx   d 8 38 37 00 84 00 00 00 D0
 49.782881 1  180117EFx       Rx   d 8 11 02 00 7D 00 7D 00 7D
 49.801559 1  180217EFx       Rx   d 8 38 37 00 84 00 00 00 E0
 49.885201 1  180117EFx       Rx   d 8 11 02 00 7D 00 7D 00 7D
 49.901522 1  180217EFx       Rx   d 8 38 37 00 84 00 00 00 F0
 49.990455 1  180117EFx       Rx   d 8 11 02 00 7D 00 7D 00 7D
 49.990455 1  180217EFx       Rx   d 8 38 37 00 84 00 00 00 00
 50.093359 1  180117EFx       Rx   d 8 11 02 00 7D 00 7D 00 7D
 50.098009 1  180217EFx       Rx   d 8 38 37 00 84 00 00 00 10
 50.197254 1  180117EFx       Rx   d 8 11 02 00 7D 00 7D 00 7D
 50.198037 1  180217EFx       Rx   d 8 38 37 00 84 00 00 00 20
 50.287762 1  180117EFx       Rx   d 8 11 02 00 7D 00 7D 00 7D
 50.287762 1  180217EFx       Rx   d 8 38 37 00 84 00 00 00 30
 50.390875 1  180117EFx       Rx   d 8 11 02 00 7D 00 7D 00 7D
 50.390875 1  180217EFx       Rx   d 8 38 37 00 84 00 00 00 40
 50.497306 1  180117EFx       Rx   d 8 11 02 00 7D 00 7D 00 7D
 50.498031 1  180217EFx       Rx   d 8 38 37 00 84 00 00 00 50
 50.592591 1  180117EFx       Rx   d 8 11 02 00 7D 00 7D 00 7D
 50.598013 1  180217EFx       Rx   d 8 38 37 00 84 00 00 00 60
 50.697064 1  180117EFx       Rx   d 8 11 02 00 7D 00 7D 00 7D
 50.701301 1  180217EFx       Rx   d 8 38 37 00 84 00 00 00 70
 50.793179 1  180117EFx       Rx   d 8 11 02 00 7D 00 7D 00 7D
 50.797884 1  180217EFx       Rx   d 8 38 37 00 84 00 00 00 80
 50.883889 1  180117EFx       Rx   d 8 11 02 00 7D 00 7D 00 7D
 50.897555 1  180217EFx       Rx   d 8 38 37 00 84 00 00 00 90
 50.983798 1  180117EFx       Rx   d 8 11 02 00 7D 00 7D 00 7D
 50.997900 1  180217EFx       Rx   d 8 38 37 00 84 00 00 00 A0
 51.087050 1  180117EFx       Rx   d 8 10 02 00 7D 00 7D 00 7D
 51.097674 1  180217EFx       Rx   d 8 38 37 00 84 00 00 00 B0
 51.183100 1  180117EFx       Rx   d 8 10 02 00 7D 00 7D 00 7D
 51.201467 1  180217EFx       Rx   d 8 38 37 00 84 00 00 00 C0
 51.294137 1  180117EFx       Rx   d 8 11 02 00 7D 00 7D 00 7D
 51.294137 1  180217EFx       Rx   d 8 38 37 00 84 00 00 00 D0
 51.384172 1  180117EFx       Rx   d 8 11 02 00 7D 00 7D 00 7D
 51.399609 1  180217EFx       Rx   d 8 38 37 00 84 00 00 00 E0
 51.485614 1  180117EFx       Rx   d 8 11 02 00 7D 00 7D 00 7D
 51.497827 1  180217EFx       Rx   d 8 38 37 00 84 00 00 00 F0
 51.592495 1  180117EFx       Rx   d 8 11 02 00 7D 00 7D 00 7D
 51.597864 1  180217EFx       Rx   d 8 38 37 00 84 00 00 00 00
 51.696645 1  180117EFx       Rx   d 8 11 02 00 7D 00 7D 00 7D
 51.697367 1  180217EFx       Rx   d 8 38 37 00 84 00 00 00 10
 51.796862 1  180117EFx       Rx   d 8 11 02 00 7D 00 7D 00 7D
 51.801043 1  180217EFx       Rx   d 8 38 37 00 84 00 00 00 20
 51.883787 1  180117EFx       Rx   d 8 11 02 00 7D 00 7D 00 7D
 51.899331 1  180217EFx       Rx   d 8 38 37 00 84 00 00 00 30
 51.988341 1  180117EFx       Rx   d 8 11 02 00 7D 00 7D 00 7D
 51.988341 1  180217EFx       Rx   d 8 38 37 00 84 00 00 00 40
 52.084439 1  180117EFx       Rx   d 8 11 02 00 7D 00 7D 00 7D
 52.097705 1  180217EFx       Rx   d 8 38 37 00 84 00 00 00 50
 52.196961 1  180117EFx       Rx   d 8 10 02 00 7D 00 7D 00 7D
 52.196961 1  180217EFx       Rx   d 8 38 37 00 84 00 00 00 60
 52.296126 1  180117EFx       Rx   d 8 11 02 00 7D 00 7D 00 7D
 52.297684 1  180217EFx       Rx   d 8 38 37 00 84 00 00 00 70
 52.382570 1  180117EFx       Rx   d 8 11 02 00 7D 00 7D 00 7D
 52.397679 1  180217EFx       Rx   d 8 38 37 00 84 00 00 00 80
 52.488111 1  180117EFx       Rx   d 8 11 02 00 7D 00 7D 00 7D
 52.501311 1  180217EFx       Rx   d 8 38 37 00 84 00 00 00 90
 52.592515 1  180117EFx       Rx   d 8 11 02 00 7D 00 7D 00 7D
 52.592515 1  180217EFx       Rx   d 8 38 37 00 84 00 00 00 A0
 52.692596 1  180117EFx       Rx   d 8 11 02 00 7D 00 7D 00 7D
 52.697627 1  180217EFx       Rx   d 8 38 37 00 84 00 00 00 B0
 52.795866 1  180117EFx       Rx   d 8 11 02 00 7D 00 7D 00 7D
 52.797670 1  180217EFx       Rx   d 8 38 37 00 84 00 00 00 C0
 52.883480 1  180117EFx       Rx   d 8 11 02 00 7D 00 7D 00 7D
 52.897658 1  180217EFx       Rx   d 8 38 37 00 84 00 00 00 D0
 52.982511 1  180117EFx       Rx   d 8 11 02 00 7D 00 7D 00 7D
 52.998166 1  180217EFx       Rx   d 8 38 37 00 84 00 00 00 E0
 53.096046 1  180117EFx       Rx   d 8 11 02 00 7D 00 7D 00 7D
 53.100817 1  180217EFx       Rx   d 8 38 37 00 84 00 00 00 F0
 53.197364 1  180117EFx       Rx   d 8 11 02 00 7D 00 7D 00 7D
 53.202041 1  180217EFx       Rx   d 8 38 37 00 84 00 00 00 00
 53.290078 1  180117EFx       Rx   d 8 11 02 00 7D 00 7D 00 7D
 53.297571 1  180217EFx       Rx   d 8 38 37 00 84 00 00 00 10
 53.381864 1  180117EFx       Rx   d 8 11 02 00 7D 00 7D 00 7D
 53.397695 1  180217EFx       Rx   d 8 38 37 00 84 00 00 00 20
 53.489141 1  180117EFx       Rx   d 8 11 02 00 7D 00 7D 00 7D
 53.497530 1  180217EFx       Rx   d 8 38 37 00 84 00 00 00 30
