date Sat May 16 15:17:59.749 2026
base hex  timestamps absolute
internal events logged
Begin Triggerblock Wed Dec 31 16:01:53.49 1969
 0.000000 Start of measurement
 0.000000 1  180117EFx       Rx   d 8 1D 02 00 7D 00 7D 00 7D
 0.000570 1  180217EFx       Rx   d 8 37 32 00 84 00 00 00 A0
 0.100094 1  180117EFx       Rx   d 8 1D 02 00 7D 00 7D 00 7D
 0.100660 1  180217EFx       Rx   d 8 36 32 00 84 00 00 00 B0
 0.200191 1  180117EFx       Rx   d 8 1C 02 00 7D 00 7D 00 7D
 0.200757 1  180217EFx       Rx   d 8 37 32 00 84 00 00 00 C0
 0.300289 1  180117EFx       Rx   d 8 1D 02 00 7D 00 7D 00 7D
 0.300856 1  180217EFx       Rx   d 8 37 32 00 84 00 00 00 D0
 0.400387 1  180117EFx       Rx   d 8 1D 02 00 7D 00 7D 00 7D
 0.400957 1  180217EFx       Rx   d 8 36 32 00 84 00 00 00 E0
 0.500501 1  180117EFx       Rx   d 8 1D 02 00 7D 00 7D 00 7D
 0.501072 1  180217EFx       Rx   d 8 37 32 00 84 00 00 00 F0
 0.600613 1  180117EFx       Rx   d 8 1D 02 00 7D 00 7D 00 7D
 0.601182 1  180217EFx       Rx   d 8 37 32 00 84 00 00 00 00
 0.700712 1  180117EFx       Rx   d 8 1D 02 00 7D 00 7D 00 7D
 0.701274 1  180217EFx       Rx   d 8 36 32 00 84 00 00 00 10
 0.800820 1  180117EFx       Rx   d 8 1D 02 00 7D 00 7D 00 7D
 0.801392 1  180217EFx       Rx   d 8 37 32 00 84 00 00 00 20
 0.900920 1  180117EFx       Rx   d 8 1C 02 00 7D 00 7D 00 7D
 0.901487 1  180217EFx       Rx   d 8 36 32 00 84 00 00 00 30
 1.001018 1  180117EFx       Rx   d 8 1D 02 00 7D 00 7D 00 7D
 1.001587 1  180217EFx       Rx   d 8 36 32 00 84 00 00 00 40
 1.101126 1  180117EFx       Rx   d 8 1D 02 00 7D 00 7D 00 7D
 1.101690 1  180217EFx       Rx   d 8 37 32 00 84 00 00 00 50
 1.201231 1  180117EFx       Rx   d 8 1D 02 00 7D 00 7D 00 7D
 1.201796 1  180217EFx       Rx   d 8 36 32 00 84 00 00 00 60
 1.301331 1  180117EFx       Rx   d 8 1D 02 00 7D 00 7D 00 7D
 1.301896 1  180217EFx       Rx   d 8 37 32 00 84 00 00 00 70
 1.401429 1  180117EFx       Rx   d 8 1C 02 00 7D 00 7D 00 7D
 1.401996 1  180217EFx       Rx   d 8 37 32 00 84 00 00 00 80
 1.501534 1  180117EFx       Rx   d 8 1C 02 00 7D 00 7D 00 7D
 1.502097 1  180217EFx       Rx   d 8 37 32 00 84 00 00 00 90
 1.601640 1  180117EFx       Rx   d 8 1D 02 00 7D 00 7D 00 7D
 1.602204 1  180217EFx       Rx   d 8 36 32 00 84 00 00 00 A0
 1.701758 1  180117EFx       Rx   d 8 1D 02 00 7D 00 7D 00 7D
 1.702317 1  180217EFx       Rx   d 8 37 37 00 84 00 00 00 B0
 1.801861 1  180117EFx       Rx   d 8 1D 02 00 7D 00 7D 00 7D
 1.802430 1  180217EFx       Rx   d 8 37 37 00 84 00 00 00 C0
 1.901969 1  180117EFx       Rx   d 8 1D 02 00 7D 00 7D 00 7D
 1.902535 1  180217EFx       Rx   d 8 37 32 00 84 00 00 00 D0
 2.002080 1  180117EFx       Rx   d 8 1D 02 00 7D 00 7D 00 7D
 2.002647 1  180217EFx       Rx   d 8 36 32 00 84 00 00 00 E0
 2.102181 1  180117EFx       Rx   d 8 1D 02 00 7D 00 7D 00 7D
 2.102745 1  180217EFx       Rx   d 8 37 37 00 84 00 00 00 F0
 2.202292 1  180117EFx       Rx   d 8 1D 02 00 7D 00 7D 00 7D
 2.202862 1  180217EFx       Rx   d 8 37 32 00 84 00 00 00 00
 2.302399 1  180117EFx       Rx   d 8 1D 02 00 7D 00 7D 00 7D
 2.302963 1  180217EFx       Rx   d 8 37 32 00 84 00 00 00 10
 2.402507 1  180117EFx       Rx   d 8 1D 02 00 7D 00 7D 00 7D
 2.403081 1  180217EFx       Rx   d 8 37 32 00 84 00 00 00 20
 2.502626 1  180117EFx       Rx   d 8 1D 02 00 7D 00 7D 00 7D
 2.503186 1  180217EFx       Rx   d 8 37 32 00 84 00 00 00 30
 2.602725 1  180117EFx       Rx   d 8 1D 02 00 7D 00 7D 00 7D
 2.603297 1  180217EFx       Rx   d 8 37 37 00 84 00 00 00 40
 2.702829 1  180117EFx       Rx   d 8 1D 02 00 7D 00 7D 00 7D
 2.703395 1  180217EFx       Rx   d 8 37 32 00 84 00 00 00 50
 2.802929 1  180117EFx       Rx   d 8 1D 02 00 7D 00 7D 00 7D
 2.803493 1  180217EFx       Rx   d 8 37 32 00 84 00 00 00 60
 2.903029 1  180117EFx       Rx   d 8 1D 02 00 7D 00 7D 00 7D
 2.903592 1  180217EFx       Rx   d 8 37 32 00 84 00 00 00 70
 3.003131 1  180117EFx       Rx   d 8 1D 02 00 7D 00 7D 00 7D
 3.003700 1  180217EFx       Rx   d 8 37 32 00 84 00 00 00 80
 3.103241 1  180117EFx       Rx   d 8 1D 02 00 7D 00 7D 00 7D
 3.103804 1  180217EFx       Rx   d 8 36 37 00 84 00 00 00 90
 45.045006 1  180117EFx       Rx   d 8 18 02 00 7D 00 7D 00 7D
 45.045569 1  180217EFx       Rx   d 8 37 32 00 84 00 00 00 C0
 45.145105 1  180117EFx       Rx   d 8 18 02 00 7D 00 7D 00 7D
 45.145669 1  180217EFx       Rx   d 8 37 37 00 84 00 00 00 D0
 45.245204 1  180117EFx       Rx   d 8 18 02 00 7D 00 7D 00 7D
 45.245769 1  180217EFx       Rx   d 8 37 32 00 84 00 00 00 E0
 45.345301 1  180117EFx       Rx   d 8 18 02 00 7D 00 7D 00 7D
 45.345865 1  180217EFx       Rx   d 8 37 37 00 84 00 00 00 F0
 45.445403 1  180117EFx       Rx   d 8 18 02 00 7D 00 7D 00 7D
 45.445972 1  180217EFx       Rx   d 8 37 37 00 84 00 00 00 00
 45.545495 1  180117EFx       Rx   d 8 18 02 00 7D 00 7D 00 7D
 45.546059 1  180217EFx       Rx   d 8 37 32 00 84 00 00 00 10
 45.645599 1  180117EFx       Rx   d 8 19 02 00 7D 00 7D 00 7D
 45.646162 1  180217EFx       Rx   d 8 37 37 00 84 00 00 00 20
 45.745708 1  180117EFx       Rx   d 8 18 02 00 7D 00 7D 00 7D
 45.746267 1  180217EFx       Rx   d 8 37 32 00 84 00 00 00 30
 45.845805 1  180117EFx       Rx   d 8 18 02 00 7D 00 7D 00 7D
 45.846370 1  180217EFx       Rx   d 8 37 37 00 84 00 00 00 40
 45.945910 1  180117EFx       Rx   d 8 18 02 00 7D 00 7D 00 7D
 45.946474 1  180217EFx       Rx   d 8 37 32 00 84 00 00 00 50
 46.046018 1  180117EFx       Rx   d 8 18 02 00 7D 00 7D 00 7D
 46.046584 1  180217EFx       Rx   d 8 37 37 00 84 00 00 00 60
 46.146129 1  180117EFx       Rx   d 8 18 02 00 7D 00 7D 00 7D
 46.146693 1  180217EFx       Rx   d 8 37 32 00 84 00 00 00 70
 46.246245 1  180117EFx       Rx   d 8 18 02 00 7D 00 7D 00 7D
 46.246813 1  180217EFx       Rx   d 8 37 32 00 84 00 00 00 80
 46.346355 1  180117EFx       Rx   d 8 18 02 00 7D 00 7D 00 7D
 46.346919 1  180217EFx       Rx   d 8 37 37 00 84 00 00 00 90
 46.446430 1  180117EFx       Rx   d 8 18 02 00 7D 00 7D 00 7D
 46.446998 1  180217EFx       Rx   d 8 37 32 00 84 00 00 00 A0
 46.546515 1  180117EFx       Rx   d 8 18 02 00 7D 00 7D 00 7D
 46.547077 1  180217EFx       Rx   d 8 37 32 00 84 00 00 00 B0
 46.646604 1  180117EFx       Rx   d 8 18 02 00 7D 00 7D 00 7D
 46.647167 1  180217EFx       Rx   d 8 37 32 00 84 00 00 00 C0
 46.746681 1  180117EFx       Rx   d 8 18 02 00 7D 00 7D 00 7D
 46.747250 1  180217EFx       Rx   d 8 37 32 00 84 00 00 00 D0
 46.846763 1  180117EFx       Rx   d 8 18 02 00 7D 00 7D 00 7D
 46.847328 1  180217EFx       Rx   d 8 37 32 00 84 00 00 00 E0
 46.946852 1  180117EFx       Rx   d 8 18 02 00 7D 00 7D 00 7D
 46.947422 1  180217EFx       Rx   d 8 37 32 00 84 00 00 00 F0
 47.046944 1  180117EFx       Rx   d 8 18 02 00 7D 00 7D 00 7D
 47.047515 1  180217EFx       Rx   d 8 37 32 00 84 00 00 00 00
 47.147058 1  180117EFx       Rx   d 8 18 02 00 7D 00 7D 00 7D
 47.147621 1  180217EFx       Rx   d 8 37 32 00 84 00 00 00 10
 47.247155 1  180117EFx       Rx   d 8 18 02 00 7D 00 7D 00 7D
 47.247728 1  180217EFx       Rx   d 8 37 32 00 84 00 00 00 20
 47.347255 1  180117EFx       Rx   d 8 18 02 00 7D 00 7D 00 7D
 47.347814 1  180217EFx       Rx   d 8 37 37 00 84 00 00 00 30
 47.447352 1  180117EFx       Rx   d 8 18 02 00 7D 00 7D 00 7D
 47.447915 1  180217EFx       Rx   d 8 37 37 00 84 00 00 00 40
 47.547447 1  180117EFx       Rx   d 8 18 02 00 7D 00 7D 00 7D
 47.548008 1  180217EFx       Rx   d 8 37 37 00 84 00 00 00 50
 47.647543 1  180117EFx       Rx   d 8 18 02 00 7D 00 7D 00 7D
 47.648108 1  180217EFx       Rx   d 8 37 37 00 84 00 00 00 60
 47.747647 1  180117EFx       Rx   d 8 18 02 00 7D 00 7D 00 7D
 47.748213 1  180217EFx       Rx   d 8 37 32 00 84 00 00 00 70
 47.847753 1  180117EFx       Rx   d 8 18 02 00 7D 00 7D 00 7D
 47.848320 1  180217EFx       Rx   d 8 37 37 00 84 00 00 00 80
 47.947857 1  180117EFx       Rx   d 8 18 02 00 7D 00 7D 00 7D
 47.948420 1  180217EFx       Rx   d 8 37 32 00 84 00 00 00 90
 48.047949 1  180117EFx       Rx   d 8 18 02 00 7D 00 7D 00 7D
 48.048516 1  180217EFx       Rx   d 8 37 32 00 84 00 00 00 A0
 48.148057 1  180117EFx       Rx   d 8 18 02 00 7D 00 7D 00 7D
 48.148618 1  180217EFx       Rx   d 8 37 37 00 84 00 00 00 B0
 48.248173 1  180117EFx       Rx   d 8 18 02 00 7D 00 7D 00 7D
 48.248741 1  180217EFx       Rx   d 8 37 37 00 84 00 00 00 C0
 48.348293 1  180117EFx       Rx   d 8 18 02 00 7D 00 7D 00 7D
 48.348863 1  180217EFx       Rx   d 8 37 32 00 84 00 00 00 D0
 48.448417 1  180117EFx       Rx   d 8 18 02 00 7D 00 7D 00 7D
 48.448987 1  180217EFx       Rx   d 8 37 37 00 84 00 00 00 E0
 48.548539 1  180117EFx       Rx   d 8 18 02 00 7D 00 7D 00 7D
 48.549109 1  180217EFx       Rx   d 8 37 32 00 84 00 00 00 F0
 48.648661 1  180117EFx       Rx   d 8 18 02 00 7D 00 7D 00 7D
 48.649231 1  180217EFx       Rx   d 8 37 32 00 84 00 00 00 00
 48.748779 1  180117EFx       Rx   d 8 18 02 00 7D 00 7D 00 7D
 48.749343 1  180217EFx       Rx   d 8 37 32 00 84 00 00 00 10
 48.848886 1  180117EFx       Rx   d 8 18 02 00 7D 00 7D 00 7D
 48.849451 1  180217EFx       Rx   d 8 37 37 00 84 00 00 00 20
 48.948990 1  180117EFx       Rx   d 8 18 02 00 7D 00 7D 00 7D
 48.949551 1  180217EFx       Rx   d 8 37 37 00 84 00 00 00 30
 49.049077 1  180117EFx       Rx   d 8 18 02 00 7D 00 7D 00 7D
 49.049642 1  180217EFx       Rx   d 8 37 32 00 84 00 00 00 40
 49.149172 1  180117EFx       Rx   d 8 18 02 00 7D 00 7D 00 7D
 49.149739 1  180217EFx       Rx   d 8 37 32 00 84 00 00 00 50
 49.249263 1  180117EFx       Rx   d 8 18 02 00 7D 00 7D 00 7D
 49.249825 1  180217EFx       Rx   d 8 37 32 00 84 00 00 00 60
 49.349332 1  180117EFx       Rx   d 8 18 02 00 7D 00 7D 00 7D
 49.349899 1  180217EFx       Rx   d 8 37 37 00 84 00 00 00 70
 49.449412 1  180117EFx       Rx   d 8 18 02 00 7D 00 7D 00 7D
 49.449980 1  180217EFx       Rx   d 8 37 32 00 84 00 00 00 80
 49.549490 1  180117EFx       Rx   d 8 18 02 00 7D 00 7D 00 7D
 49.550054 1  180217EFx       Rx   d 8 37 32 00 84 00 00 00 90
 49.649569 1  180117EFx       Rx   d 8 18 02 00 7D 00 7D 00 7D
 49.650140 1  180217EFx       Rx   d 8 37 37 00 84 00 00 00 A0
 49.749659 1  180117EFx       Rx   d 8 18 02 00 7D 00 7D 00 7D
 49.750217 1  180217EFx       Rx   d 8 37 32 00 84 00 00 00 B0
 49.849745 1  180117EFx       Rx   d 8 18 02 00 7D 00 7D 00 7D
 49.850307 1  180217EFx       Rx   d 8 37 32 00 84 00 00 00 C0
 49.949841 1  180117EFx       Rx   d 8 18 02 00 7D 00 7D 00 7D
 49.950408 1  180217EFx       Rx   d 8 37 32 00 84 00 00 00 D0
 50.049937 1  180117EFx       Rx   d 8 18 02 00 7D 00 7D 00 7D
 50.050502 1  180217EFx       Rx   d 8 37 32 00 84 00 00 00 E0
 50.150043 1  180117EFx       Rx   d 8 18 02 00 7D 00 7D 00 7D
 50.150610 1  180217EFx       Rx   d 8 37 32 00 84 00 00 00 F0
 50.250145 1  180117EFx       Rx   d 8 18 02 00 7D 00 7D 00 7D
 50.250714 1  180217EFx       Rx   d 8 37 37 00 84 00 00 00 00
 50.350234 1  180117EFx       Rx   d 8 18 02 00 7D 00 7D 00 7D
 50.350798 1  180217EFx       Rx   d 8 37 37 00 84 00 00 00 10
 50.450337 1  180117EFx       Rx   d 8 18 02 00 7D 00 7D 00 7D
 50.450909 1  180217EFx       Rx   d 8 37 32 00 84 00 00 00 20
 50.550424 1  180117EFx       Rx   d 8 18 02 00 7D 00 7D 00 7D
 50.550982 1  180217EFx       Rx   d 8 37 32 00 84 00 00 00 30
 50.650508 1  180117EFx       Rx   d 8 18 02 00 7D 00 7D 00 7D
 50.651074 1  180217EFx       Rx   d 8 37 32 00 84 00 00 00 40
 50.750595 1  180117EFx       Rx   d 8 18 02 00 7D 00 7D 00 7D
 50.751160 1  180217EFx       Rx   d 8 37 32 00 84 00 00 00 50
 50.850678 1  180117EFx       Rx   d 8 18 02 00 7D 00 7D 00 7D
 50.851241 1  180217EFx       Rx   d 8 37 32 00 84 00 00 00 60
 50.950768 1  180117EFx       Rx   d 8 18 02 00 7D 00 7D 00 7D
 50.951332 1  180217EFx       Rx   d 8 37 32 00 84 00 00 00 70
 51.050872 1  180117EFx       Rx   d 8 18 02 00 7D 00 7D 00 7D
 51.051440 1  180217EFx       Rx   d 8 37 32 00 84 00 00 00 80
 51.150975 1  180117EFx       Rx   d 8 18 02 00 7D 00 7D 00 7D
 51.151539 1  180217EFx       Rx   d 8 37 37 00 84 00 00 00 90
 51.251064 1  180117EFx       Rx   d 8 18 02 00 7D 00 7D 00 7D
 51.251638 1  180217EFx       Rx   d 8 37 37 00 84 00 00 00 A0
 51.351145 1  180117EFx       Rx   d 8 18 02 00 7D 00 7D 00 7D
 51.351706 1  180217EFx       Rx   d 8 37 32 00 84 00 00 00 B0
 51.451233 1  180117EFx       Rx   d 8 18 02 00 7D 00 7D 00 7D
 51.451802 1  180217EFx       Rx   d 8 37 37 00 84 00 00 00 C0
 51.551320 1  180117EFx       Rx   d 8 18 02 00 7D 00 7D 00 7D
 51.551887 1  180217EFx       Rx   d 8 37 32 00 84 00 00 00 D0
 51.651410 1  180117EFx       Rx   d 8 18 02 00 7D 00 7D 00 7D
 51.651979 1  180217EFx       Rx   d 8 37 37 00 84 00 00 00 E0
 51.751501 1  180117EFx       Rx   d 8 18 02 00 7D 00 7D 00 7D
 51.752069 1  180217EFx       Rx   d 8 37 37 00 84 00 00 00 F0
 51.851605 1  180117EFx       Rx   d 8 18 02 00 7D 00 7D 00 7D
 51.852177 1  180217EFx       Rx   d 8 37 32 00 84 00 00 00 00
 51.951707 1  180117EFx       Rx   d 8 18 02 00 7D 00 7D 00 7D
 51.952272 1  180217EFx       Rx   d 8 37 32 00 84 00 00 00 10
 52.051800 1  180117EFx       Rx   d 8 18 02 00 7D 00 7D 00 7D
 52.052372 1  180217EFx       Rx   d 8 37 32 00 84 00 00 00 20
 52.151896 1  180117EFx       Rx   d 8 18 02 00 7D 00 7D 00 7D
 52.152456 1  180217EFx       Rx   d 8 37 32 00 84 00 00 00 30
 52.251996 1  180117EFx       Rx   d 8 18 02 00 7D 00 7D 00 7D
 52.252560 1  180217EFx       Rx   d 8 37 32 00 84 00 00 00 40
 52.352104 1  180117EFx       Rx   d 8 18 02 00 7D 00 7D 00 7D
 52.352665 1  180217EFx       Rx   d 8 37 37 00 84 00 00 00 50
 52.452206 1  180117EFx       Rx   d 8 18 02 00 7D 00 7D 00 7D
 52.452771 1  180217EFx       Rx   d 8 37 32 00 84 00 00 00 60
 52.552313 1  180117EFx       Rx   d 8 18 02 00 7D 00 7D 00 7D
 52.552876 1  180217EFx       Rx   d 8 37 32 00 84 00 00 00 70
 52.652411 1  180117EFx       Rx   d 8 18 02 00 7D 00 7D 00 7D
 52.652982 1  180217EFx       Rx   d 8 37 32 00 84 00 00 00 80
 52.752525 1  180117EFx       Rx   d 8 18 02 00 7D 00 7D 00 7D
 52.753088 1  180217EFx       Rx   d 8 37 32 00 84 00 00 00 90
 52.852637 1  180117EFx       Rx   d 8 18 02 00 7D 00 7D 00 7D
 52.853210 1  180217EFx       Rx   d 8 37 37 00 84 00 00 00 A0
 52.952740 1  180117EFx       Rx   d 8 18 02 00 7D 00 7D 00 7D
 52.953300 1  180217EFx       Rx   d 8 37 32 00 84 00 00 00 B0
 53.052844 1  180117EFx       Rx   d 8 18 02 00 7D 00 7D 00 7D
 53.053406 1  180217EFx       Rx   d 8 37 32 00 84 00 00 00 C0
 53.152953 1  180117EFx       Rx   d 8 18 02 00 7D 00 7D 00 7D
End TriggerBlock
