date Sat May 16 15:32:04.727 2026
base hex  timestamps absolute
internal events logged
Begin Triggerblock Sat May 16 15:32:04.739 2026
 0.000000 Start of measurement
 0.000000 1  180217EFx       Rx   d 8 37 32 00 84 00 00 00 70
 0.040383 1  180117EFx       Rx   d 8 1A 02 00 7D 00 7D 00 7D
 0.046870 1  180217EFx       Rx   d 8 37 32 00 84 00 00 00 F0
 0.144816 1  180117EFx       Rx   d 8 1A 02 00 7D 00 7D 00 7D
 0.146909 1  180217EFx       Rx   d 8 37 37 00 84 00 00 00 00
 0.241549 1  180117EFx       Rx   d 8 1A 02 00 7D 00 7D 00 7D
 0.247235 1  180217EFx       Rx   d 8 37 32 00 84 00 00 00 10
 0.346228 1  180117EFx       Rx   d 8 1A 02 00 7D 00 7D 00 7D
 0.347418 1  180217EFx       Rx   d 8 37 37 00 84 00 00 00 20
 0.442872 1  180117EFx       Rx   d 8 1A 02 00 7D 00 7D 00 7D
 0.447163 1  180217EFx       Rx   d 8 37 32 00 84 00 00 00 30
 0.546074 1  180117EFx       Rx   d 8 1A 02 00 7D 00 7D 00 7D
 0.547069 1  180217EFx       Rx   d 8 37 32 00 84 00 00 00 40
 0.643399 1  180117EFx       Rx   d 8 1A 02 00 7D 00 7D 00 7D
 0.647511 1  180217EFx       Rx   d 8 37 32 00 84 00 00 00 50
 0.740416 1  180117EFx       Rx   d 8 1B 02 00 7D 00 7D 00 7D
 0.747824 1  180217EFx       Rx   d 8 37 37 00 84 00 00 00 60
 0.844439 1  180117EFx       Rx   d 8 1A 02 00 7D 00 7D 00 7D
 0.846954 1  180217EFx       Rx   d 8 37 32 00 84 00 00 00 70
 0.942369 1  180117EFx       Rx   d 8 1A 02 00 7D 00 7D 00 7D
 0.948533 1  180217EFx       Rx   d 8 37 32 00 84 00 00 00 80
 1.046321 1  180117EFx       Rx   d 8 1A 02 00 7D 00 7D 00 7D
 1.047536 1  180217EFx       Rx   d 8 37 37 00 84 00 00 00 90
 1.143569 1  180117EFx       Rx   d 8 1A 02 00 7D 00 7D 00 7D
 1.146567 1  180217EFx       Rx   d 8 37 32 00 84 00 00 00 A0
 1.246005 1  180117EFx       Rx   d 8 1A 02 00 7D 00 7D 00 7D
 1.247002 1  180217EFx       Rx   d 8 37 32 00 84 00 00 00 B0
 1.333491 1  180117EFx       Rx   d 8 1A 02 00 7D 00 7D 00 7D
 1.347084 1  180217EFx       Rx   d 8 37 37 00 84 00 00 00 C0
 1.432035 1  180117EFx       Rx   d 8 1A 02 00 7D 00 7D 00 7D
 1.446622 1  180217EFx       Rx   d 8 37 32 00 84 00 00 00 D0
 1.546307 1  180117EFx       Rx   d 8 1A 02 00 7D 00 7D 00 7D
 1.547714 1  180217EFx       Rx   d 8 37 37 00 84 00 00 00 E0
 1.641185 1  180117EFx       Rx   d 8 1A 02 00 7D 00 7D 00 7D
 1.647671 1  180217EFx       Rx   d 8 37 32 00 84 00 00 00 F0
 1.746342 1  180117EFx       Rx   d 8 1A 02 00 7D 00 7D 00 7D
 1.747419 1  180217EFx       Rx   d 8 37 37 00 84 00 00 00 00
 1.831827 1  180117EFx       Rx   d 8 1A 02 00 7D 00 7D 00 7D
 1.847339 1  180217EFx       Rx   d 8 37 37 00 84 00 00 00 10
 1.935174 1  180117EFx       Rx   d 8 1A 02 00 7D 00 7D 00 7D
 1.946975 1  180217EFx       Rx   d 8 37 32 00 84 00 00 00 20
 2.046093 1  180117EFx       Rx   d 8 1A 02 00 7D 00 7D 00 7D
 2.047143 1  180217EFx       Rx   d 8 37 32 00 84 00 00 00 30
 2.136847 1  180117EFx       Rx   d 8 1A 02 00 7D 00 7D 00 7D
 2.147104 1  180217EFx       Rx   d 8 37 32 00 84 00 00 00 40
 2.246155 1  180117EFx       Rx   d 8 1A 02 00 7D 00 7D 00 7D
 2.247779 1  180217EFx       Rx   d 8 37 32 00 84 00 00 00 50
 2.343436 1  180117EFx       Rx   d 8 1A 02 00 7D 00 7D 00 7D
 2.346778 1  180217EFx       Rx   d 8 37 32 00 84 00 00 00 60
 2.433599 1  180117EFx       Rx   d 8 1A 02 00 7D 00 7D 00 7D
 2.446997 1  180217EFx       Rx   d 8 37 32 00 84 00 00 00 70
 2.535877 1  180117EFx       Rx   d 8 1A 02 00 7D 00 7D 00 7D
 2.547059 1  180217EFx       Rx   d 8 37 32 00 84 00 00 00 80
 2.643526 1  180117EFx       Rx   d 8 1A 02 00 7D 00 7D 00 7D
 2.647217 1  180217EFx       Rx   d 8 37 37 00 84 00 00 00 90
 2.745933 1  180117EFx       Rx   d 8 1B 02 00 7D 00 7D 00 7D
 2.747464 1  180217EFx       Rx   d 8 37 37 00 84 00 00 00 A0
 2.831672 1  180117EFx       Rx   d 8 1A 02 00 7D 00 7D 00 7D
 2.847205 1  180217EFx       Rx   d 8 37 37 00 84 00 00 00 B0
 2.932001 1  180117EFx       Rx   d 8 1A 02 00 7D 00 7D 00 7D
 2.947319 1  180217EFx       Rx   d 8 37 32 00 84 00 00 00 C0
 3.030944 1  180117EFx       Rx   d 8 1A 02 00 7D 00 7D 00 7D
 3.047300 1  180217EFx       Rx   d 8 37 32 00 84 00 00 00 D0
 3.144675 1  180117EFx       Rx   d 8 1B 02 00 7D 00 7D 00 7D
 3.146975 1  180217EFx       Rx   d 8 37 37 00 84 00 00 00 E0
 3.239151 1  180117EFx       Rx   d 8 1A 02 00 7D 00 7D 00 7D
 3.247256 1  180217EFx       Rx   d 8 37 32 00 84 00 00 00 F0
 3.331055 1  180117EFx       Rx   d 8 1A 02 00 7D 00 7D 00 7D
 3.347383 1  180217EFx       Rx   d 8 37 37 00 84 00 00 00 00
 3.442904 1  180117EFx       Rx   d 8 1A 02 00 7D 00 7D 00 7D
 3.446958 1  180217EFx       Rx   d 8 37 32 00 84 00 00 00 10
 3.539357 1  180117EFx       Rx   d 8 1A 02 00 7D 00 7D 00 7D
 3.547584 1  180217EFx       Rx   d 8 37 32 00 84 00 00 00 20
 3.643566 1  180117EFx       Rx   d 8 1A 02 00 7D 00 7D 00 7D
 3.647137 1  180217EFx       Rx   d 8 37 32 00 84 00 00 00 30
 3.731666 1  180117EFx       Rx   d 8 1A 02 00 7D 00 7D 00 7D
 3.747165 1  180217EFx       Rx   d 8 37 37 00 84 00 00 00 40
 3.832952 1  180117EFx       Rx   d 8 1A 02 00 7D 00 7D 00 7D
 3.847234 1  180217EFx       Rx   d 8 37 32 00 84 00 00 00 50
 3.934901 1  180117EFx       Rx   d 8 1A 02 00 7D 00 7D 00 7D
 3.947027 1  180217EFx       Rx   d 8 37 32 00 84 00 00 00 60
 4.035253 1  180117EFx       Rx   d 8 1A 02 00 7D 00 7D 00 7D
 4.047088 1  180217EFx       Rx   d 8 37 32 00 84 00 00 00 70
 4.143478 1  180117EFx       Rx   d 8 1A 02 00 7D 00 7D 00 7D
 4.147088 1  180217EFx       Rx   d 8 37 32 00 84 00 00 00 80
 4.239727 1  180117EFx       Rx   d 8 1A 02 00 7D 00 7D 00 7D
 4.247107 1  180217EFx       Rx   d 8 37 32 00 84 00 00 00 90
 4.330933 1  180117EFx       Rx   d 8 1A 02 00 7D 00 7D 00 7D
 4.346923 1  180217EFx       Rx   d 8 37 32 00 84 00 00 00 A0
 4.445751 1  180117EFx       Rx   d 8 1B 02 00 7D 00 7D 00 7D
 4.447895 1  180217EFx       Rx   d 8 37 32 00 84 00 00 00 B0
 4.539257 1  180117EFx       Rx   d 8 1B 02 00 7D 00 7D 00 7D
 4.547088 1  180217EFx       Rx   d 8 37 32 00 84 00 00 00 C0
 4.643424 1  180117EFx       Rx   d 8 1A 02 00 7D 00 7D 00 7D
 4.647010 1  180217EFx       Rx   d 8 37 37 00 84 00 00 00 D0
 4.744506 1  180117EFx       Rx   d 8 1A 02 00 7D 00 7D 00 7D
 4.747271 1  180217EFx       Rx   d 8 37 37 00 84 00 00 00 E0
 4.834117 1  180117EFx       Rx   d 8 1A 02 00 7D 00 7D 00 7D
 4.846852 1  180217EFx       Rx   d 8 37 32 00 84 00 00 00 F0
 4.945646 1  180117EFx       Rx   d 8 1A 02 00 7D 00 7D 00 7D
 4.947426 1  180217EFx       Rx   d 8 37 32 00 84 00 00 00 00
 5.036347 1  180117EFx       Rx   d 8 1B 02 00 7D 00 7D 00 7D
 5.047028 1  180217EFx       Rx   d 8 37 32 00 84 00 00 00 10
 5.143310 1  180117EFx       Rx   d 8 1A 02 00 7D 00 7D 00 7D
 5.146974 1  180217EFx       Rx   d 8 37 32 00 84 00 00 00 20
 5.245245 1  180117EFx       Rx   d 8 1A 02 00 7D 00 7D 00 7D
 5.247975 1  180217EFx       Rx   d 8 37 37 00 84 00 00 00 30
 5.332744 1  180117EFx       Rx   d 8 1A 02 00 7D 00 7D 00 7D
 5.346948 1  180217EFx       Rx   d 8 37 37 00 84 00 00 00 40
 5.445621 1  180117EFx       Rx   d 8 1A 02 00 7D 00 7D 00 7D
 5.447865 1  180217EFx       Rx   d 8 37 32 00 84 00 00 00 50
 5.536148 1  180117EFx       Rx   d 8 1B 02 00 7D 00 7D 00 7D
 5.546903 1  180217EFx       Rx   d 8 37 32 00 84 00 00 00 60
 5.643304 1  180117EFx       Rx   d 8 1A 02 00 7D 00 7D 00 7D
 5.646895 1  180217EFx       Rx   d 8 37 32 00 84 00 00 00 70
 5.744207 1  180117EFx       Rx   d 8 1A 02 00 7D 00 7D 00 7D
 5.747156 1  180217EFx       Rx   d 8 37 32 00 84 00 00 00 80
 5.833189 1  180117EFx       Rx   d 8 1A 02 00 7D 00 7D 00 7D
 5.846877 1  180217EFx       Rx   d 8 37 37 00 84 00 00 00 90
 5.931955 1  180117EFx       Rx   d 8 1A 02 00 7D 00 7D 00 7D
 5.947020 1  180217EFx       Rx   d 8 37 32 00 84 00 00 00 A0
 6.039093 1  180117EFx       Rx   d 8 1A 02 00 7D 00 7D 00 7D
 6.046800 1  180217EFx       Rx   d 8 37 37 00 84 00 00 00 B0
 6.142108 1  180117EFx       Rx   d 8 1B 02 00 7D 00 7D 00 7D
 6.146855 1  180217EFx       Rx   d 8 37 32 00 84 00 00 00 C0
 6.242422 1  180117EFx       Rx   d 8 1A 02 00 7D 00 7D 00 7D
 6.246881 1  180217EFx       Rx   d 8 37 32 00 84 00 00 00 D0
 6.332830 1  180117EFx       Rx   d 8 1B 02 00 7D 00 7D 00 7D
 6.347332 1  180217EFx       Rx   d 8 37 37 00 84 00 00 00 E0
 6.434911 1  180117EFx       Rx   d 8 1A 02 00 7D 00 7D 00 7D
 6.447951 1  180217EFx       Rx   d 8 37 32 00 84 00 00 00 F0
 6.545585 1  180117EFx       Rx   d 8 1A 02 00 7D 00 7D 00 7D
 6.546523 1  180217EFx       Rx   d 8 37 32 00 84 00 00 00 00
 6.643164 1  180117EFx       Rx   d 8 1B 02 00 7D 00 7D 00 7D
 6.646781 1  180217EFx       Rx   d 8 37 32 00 84 00 00 00 10
 6.745623 1  180117EFx       Rx   d 8 1A 02 00 7D 00 7D 00 7D
 6.746817 1  180217EFx       Rx   d 8 37 32 00 84 00 00 00 20
 6.842967 1  180117EFx       Rx   d 8 1A 02 00 7D 00 7D 00 7D
 6.846855 1  180217EFx       Rx   d 8 37 32 00 84 00 00 00 30
 6.935230 1  180117EFx       Rx   d 8 1A 02 00 7D 00 7D 00 7D
 6.946748 1  180217EFx       Rx   d 8 37 37 00 84 00 00 00 40
 7.038961 1  180117EFx       Rx   d 8 1B 02 82 7C 40 7F 00 7D
 7.046766 1  180217EFx       Rx   d 8 37 32 16 94 00 00 00 50
 7.143137 1  180117EFx       Rx   d 8 10 02 01 7E A7 81 E8 83
 7.146724 1  180217EFx       Rx   d 8 37 32 33 94 00 00 00 60
 7.244918 1  180117EFx       Rx   d 8 12 02 1F 7D 1A 7E 7C 88
 7.246820 1  180217EFx       Rx   d 8 37 32 1C 94 00 00 00 70
 7.330525 1  180117EFx       Rx   d 8 1B 02 8A 7C 11 7D F1 87
 7.347606 1  180217EFx       Rx   d 8 37 32 00 84 00 00 00 80
 7.433058 1  180117EFx       Rx   d 8 1A 02 98 7C B3 7C 15 87
 7.447449 1  180217EFx       Rx   d 8 37 32 00 84 00 00 00 90
 7.541217 1  180117EFx       Rx   d 8 1B 02 8C 7C 50 7D 4C 86
 7.547179 1  180217EFx       Rx   d 8 37 32 00 84 00 00 00 A0
 7.637385 1  180117EFx       Rx   d 8 1B 02 8B 7C 3B 7D 8A 85
 7.645772 1  180217EFx       Rx   d 8 37 32 00 84 00 00 00 B0
 7.742567 1  180117EFx       Rx   d 8 1A 02 8E 7C 21 7D E1 84
 7.745553 1  180217EFx       Rx   d 8 37 32 00 84 00 00 00 C0
 7.838660 1  180117EFx       Rx   d 8 1B 02 83 7C 1B 7D 40 84
 7.845981 1  180217EFx       Rx   d 8 37 32 00 84 00 00 00 D0
 7.934668 1  180117EFx       Rx   d 8 1B 02 8A 7C 4B 7D 9F 83
 7.946632 1  180217EFx       Rx   d 8 37 32 00 84 00 00 00 E0
 8.035460 1  180117EFx       Rx   d 8 1B 02 89 7C 27 7D 05 83
 8.046642 1  180217EFx       Rx   d 8 37 32 00 84 00 00 00 F0
 8.140138 1  180117EFx       Rx   d 8 1B 02 85 7C E9 7C 7E 82
 8.146570 1  180217EFx       Rx   d 8 37 32 00 84 00 00 00 00
 8.244059 1  180117EFx       Rx   d 8 1B 02 84 7C 1D 7D EF 81
 8.246885 1  180217EFx       Rx   d 8 37 32 00 84 00 00 00 10
 8.331303 1  180117EFx       Rx   d 8 1B 02 89 7C 1F 7D 6F 81
 8.347645 1  180217EFx       Rx   d 8 37 32 00 84 00 00 00 20
 8.445327 1  180117EFx       Rx   d 8 1B 02 8D 7C 13 7D F2 80
 8.446733 1  180217EFx       Rx   d 8 37 32 00 84 00 00 00 30
 8.534818 1  180117EFx       Rx   d 8 1B 02 8A 7C 1F 7D 76 80
 8.546672 1  180217EFx       Rx   d 8 37 32 00 84 00 00 00 40
 8.642976 1  180117EFx       Rx   d 8 1B 02 80 7C 22 7D 04 80
 8.646512 1  180217EFx       Rx   d 8 37 32 00 84 00 00 00 50
 8.744261 1  180117EFx       Rx   d 8 1B 02 86 7C 1A 7D 9A 7F
 8.746823 1  180217EFx       Rx   d 8 37 32 00 84 00 00 00 60
 8.830381 1  180117EFx       Rx   d 8 1B 02 8E 7C 12 7D 2C 7F
 8.846560 1  180217EFx       Rx   d 8 37 32 00 84 00 00 00 70
 8.945261 1  180117EFx       Rx   d 8 1B 02 87 7C 13 7D D4 7E
 8.946654 1  180217EFx       Rx   d 8 37 32 00 84 00 00 00 80
 9.044993 1  180117EFx       Rx   d 8 1B 02 85 7C 16 7D 7C 7E
 9.046517 1  180217EFx       Rx   d 8 37 32 00 84 00 00 00 90
 9.142940 1  180117EFx       Rx   d 8 1B 02 82 7C 0F 7D 28 7E
 9.146481 1  180217EFx       Rx   d 8 37 32 00 84 00 00 00 A0
 9.245178 1  180117EFx       Rx   d 8 1B 02 83 7C 0B 7D EA 7D
 9.246705 1  180217EFx       Rx   d 8 37 32 00 84 00 00 00 B0
 9.345069 1  180117EFx       Rx   d 8 1B 02 84 7C 06 7D B7 7D
 9.346308 1  180217EFx       Rx   d 8 37 32 00 84 00 00 00 C0
 9.436624 1  180117EFx       Rx   d 8 1A 02 8D 7C DC 7E 8E 7D
 9.446441 1  180217EFx       Rx   d 8 37 32 11 94 00 00 00 D0
 9.539490 1  180117EFx       Rx   d 8 17 02 E2 7C 4A 7F B4 81
 9.546458 1  180217EFx       Rx   d 8 37 32 17 94 00 00 00 E0
 9.642864 1  180117EFx       Rx   d 8 16 02 F0 7C 52 7E C4 84
 9.646419 1  180217EFx       Rx   d 8 37 32 17 94 00 00 00 F0
 9.733159 1  180117EFx       Rx   d 8 15 02 28 7D AB 7E D7 86
 9.747391 1  180217EFx       Rx   d 8 37 32 15 94 00 00 00 00
 9.831989 1  180117EFx       Rx   d 8 16 02 F7 7C 27 7E 0B 88
 9.847424 1  180217EFx       Rx   d 8 37 32 0F 94 00 00 00 10
 9.931747 1  180117EFx       Rx   d 8 16 02 0E 7D 3B 7E F9 88
 9.946413 1  180217EFx       Rx   d 8 37 32 13 94 00 00 00 20
 10.038646 1  180117EFx       Rx   d 8 14 02 1F 7D 73 7E 34 8A
 10.046366 1  180217EFx       Rx   d 8 37 32 18 94 00 00 00 30
 10.142795 1  180117EFx       Rx   d 8 13 02 28 7D 5B 7E B0 8B
 10.146341 1  180217EFx       Rx   d 8 37 32 1B 94 00 00 00 40
 10.245111 1  180117EFx       Rx   d 8 14 02 5D 7D 1E 7E BC 8C
 10.246504 1  180217EFx       Rx   d 8 37 32 18 94 00 00 00 50
 10.333127 1  180117EFx       Rx   d 8 14 02 27 7D 08 7E 73 8D
 10.346336 1  180217EFx       Rx   d 8 37 32 18 94 00 00 00 60
 10.444761 1  180117EFx       Rx   d 8 15 02 58 7D F8 7D FA 8D
 10.446152 1  180217EFx       Rx   d 8 37 32 18 94 00 00 00 70
 10.537149 1  180117EFx       Rx   d 8 15 02 0C 7D C7 7D 6C 8E
 10.546291 1  180217EFx       Rx   d 8 37 32 17 94 00 00 00 80
 10.642730 1  180117EFx       Rx   d 8 15 02 DD 7C 7C 7D A3 8E
 10.646248 1  180217EFx       Rx   d 8 37 32 17 94 00 00 00 90
 10.744969 1  180117EFx       Rx   d 8 16 02 40 7D F6 7D A7 8E
 10.746264 1  180217EFx       Rx   d 8 37 32 17 94 00 00 00 A0
 10.829966 1  180117EFx       Rx   d 8 16 02 D8 7C B2 7D A7 8E
 10.845692 1  180217EFx       Rx   d 8 37 32 14 94 00 00 00 B0
 10.945039 1  180117EFx       Rx   d 8 16 02 BF 7C 90 7D 9C 8E
 10.946931 1  180217EFx       Rx   d 8 37 32 13 94 00 00 00 C0
 11.038520 1  180117EFx       Rx   d 8 16 02 FD 7C 94 7D B2 8E
 11.046257 1  180217EFx       Rx   d 8 37 32 13 94 00 00 00 D0
 11.142397 1  180117EFx       Rx   d 8 16 02 D9 7C 6B 7D A7 8E
 11.146197 1  180217EFx       Rx   d 8 37 32 13 94 00 00 00 E0
 11.244794 1  180117EFx       Rx   d 8 16 02 DC 7C 8D 7D 9F 8E
 11.245981 1  180217EFx       Rx   d 8 37 32 13 94 00 00 00 F0
 11.332302 1  180117EFx       Rx   d 8 17 02 34 7D C3 7D AE 8E
 11.346256 1  180217EFx       Rx   d 8 37 32 13 94 00 00 00 00
 11.434330 1  180117EFx       Rx   d 8 16 02 10 7D CE 7D AE 8E
 11.446260 1  180217EFx       Rx   d 8 37 32 13 94 00 00 00 10
 11.538230 1  180117EFx       Rx   d 8 16 02 DA 7C B8 7D A7 8E
 11.545908 1  180217EFx       Rx   d 8 37 32 13 94 00 00 00 20
 11.642658 1  180117EFx       Rx   d 8 16 02 01 7D AB 7D B9 8E
 11.646131 1  180217EFx       Rx   d 8 37 32 13 94 00 00 00 30
 11.744943 1  180117EFx       Rx   d 8 16 02 1F 7D B4 7D AE 8E
 11.746097 1  180217EFx       Rx   d 8 37 32 13 94 00 00 00 40
 11.830916 1  180117EFx       Rx   d 8 16 02 E3 7C 76 7D A7 8E
 11.846187 1  180217EFx       Rx   d 8 37 32 13 94 00 00 00 50
 11.944828 1  180117EFx       Rx   d 8 16 02 C1 7C 74 7D B5 8E
 11.946271 1  180217EFx       Rx   d 8 37 32 13 94 00 00 00 60
 12.034424 1  180117EFx       Rx   d 8 16 02 C5 7C 83 7D AE 8E
 12.046209 1  180217EFx       Rx   d 8 37 32 13 94 00 00 00 70
 12.142608 1  180117EFx       Rx   d 8 16 02 01 7D C8 7D A3 8E
 12.146081 1  180217EFx       Rx   d 8 37 32 13 94 00 00 00 80
 12.242458 1  180117EFx       Rx   d 8 16 02 C4 7C 67 7D BD 8E
 12.246146 1  180217EFx       Rx   d 8 37 32 13 94 00 00 00 90
 12.331882 1  180117EFx       Rx   d 8 16 02 DA 7C 8A 7D AA 8E
 12.347097 1  180217EFx       Rx   d 8 37 32 13 94 00 00 00 A0
 12.434998 1  180117EFx       Rx   d 8 16 02 1E 7D B1 7D BD 8E
 12.446173 1  180217EFx       Rx   d 8 37 32 13 94 00 00 00 B0
 12.538377 1  180117EFx       Rx   d 8 16 02 E5 7C 90 7D AE 8E
 12.546063 1  180217EFx       Rx   d 8 37 32 13 94 00 00 00 C0
 12.643185 1  180117EFx       Rx   d 8 16 02 B7 7C 84 7D A3 8E
 12.646013 1  180217EFx       Rx   d 8 37 32 13 94 00 00 00 D0
 12.744871 1  180117EFx       Rx   d 8 16 02 05 7D 97 7D B9 8E
 12.746097 1  180217EFx       Rx   d 8 37 32 13 94 00 00 00 E0
 12.841537 1  180117EFx       Rx   d 8 16 02 F9 7C A8 7D A3 8E
 12.846489 1  180217EFx       Rx   d 8 37 32 13 94 00 00 00 F0
 12.934164 1  180117EFx       Rx   d 8 16 02 42 7D D3 7D BD 8E
 12.945996 1  180217EFx       Rx   d 8 37 32 13 94 00 00 00 00
 13.035043 1  180117EFx       Rx   d 8 16 02 04 7D B6 7D AE 8E
 13.045968 1  180217EFx       Rx   d 8 37 32 14 94 00 00 00 10
 13.142374 1  180117EFx       Rx   d 8 16 02 B4 7C 8A 7D A7 8E
 13.145969 1  180217EFx       Rx   d 8 37 32 14 94 00 00 00 20
 13.243938 1  180117EFx       Rx   d 8 16 02 C0 7C 6B 7D B9 8E
 13.246327 1  180217EFx       Rx   d 8 37 32 13 94 00 00 00 30
 13.330738 1  180117EFx       Rx   d 8 17 02 F2 7C 78 7D AA 8E
 13.346018 1  180217EFx       Rx   d 8 37 32 13 94 00 00 00 40
 13.440116 1  180117EFx       Rx   d 8 16 02 EF 7C AA 7D A7 8E
 13.445963 1  180217EFx       Rx   d 8 37 32 13 94 00 00 00 50
 13.537994 1  180117EFx       Rx   d 8 16 02 03 7D 9F 7D B5 8E
 13.545945 1  180217EFx       Rx   d 8 37 32 13 94 00 00 00 60
 13.642163 1  180117EFx       Rx   d 8 16 02 B8 7C 7E 7D A7 8E
 13.645924 1  180217EFx       Rx   d 8 37 32 12 94 00 00 00 70
 13.743994 1  180117EFx       Rx   d 8 16 02 C1 7C 82 7D B5 8E
 13.746539 1  180217EFx       Rx   d 8 37 32 0F 94 00 00 00 80
 13.832972 1  180117EFx       Rx   d 8 16 02 CD 7C 63 7D B2 8E
 13.845931 1  180217EFx       Rx   d 8 37 32 0E 94 00 00 00 90
 13.929805 1  180117EFx       Rx   d 8 16 02 13 7D B5 7D A3 8E
 13.946179 1  180217EFx       Rx   d 8 37 32 0E 94 00 00 00 A0
 14.033402 1  180117EFx       Rx   d 8 16 02 32 7D CB 7D B9 8E
 14.046005 1  180217EFx       Rx   d 8 37 32 35 94 00 00 00 B0
 14.141379 1  180117EFx       Rx   d 8 16 02 C8 7C 8A 7D AE 8E
 14.145843 1  180217EFx       Rx   d 8 37 32 64 94 00 00 00 C0
 14.243537 1  180117EFx       Rx   d 8 16 02 D6 7C 98 7D A7 8E
 14.246214 1  180217EFx       Rx   d 8 37 32 64 94 00 00 00 D0
 14.329864 1  180117EFx       Rx   d 8 18 02 A0 7C 2B 7D 77 8E
 14.345924 1  180217EFx       Rx   d 8 37 32 00 84 00 00 00 E0
 14.433974 1  180117EFx       Rx   d 8 18 02 A1 7C 17 7D BC 8D
 14.445840 1  180217EFx       Rx   d 8 37 32 00 84 00 00 00 F0
 14.538126 1  180117EFx       Rx   d 8 19 02 B3 7C 38 7D 17 8D
 14.545874 1  180217EFx       Rx   d 8 37 32 00 84 00 00 00 00
 14.642305 1  180117EFx       Rx   d 8 19 02 89 7C 2A 7D 64 8C
 14.645816 1  180217EFx       Rx   d 8 37 32 00 84 00 00 00 10
 14.744149 1  180117EFx       Rx   d 8 19 02 72 7C CB 7C D1 8B
 14.745156 1  180217EFx       Rx   d 8 37 32 00 84 00 00 00 20
 14.836690 1  180117EFx       Rx   d 8 19 02 96 7C 23 7D 25 8B
 14.846335 1  180217EFx       Rx   d 8 37 32 00 84 00 00 00 30
 14.932809 1  180117EFx       Rx   d 8 19 02 81 7C 25 7D 81 8A
 14.945849 1  180217EFx       Rx   d 8 37 32 00 84 00 00 00 40
 15.038866 1  180117EFx       Rx   d 8 19 02 B0 7C 45 7D E3 89
 15.045822 1  180217EFx       Rx   d 8 37 32 00 84 00 00 00 50
 15.139220 1  180117EFx       Rx   d 8 19 02 8C 7C 2D 7D 42 89
 15.145691 1  180217EFx       Rx   d 8 37 32 00 84 00 00 00 60
 15.238096 1  180117EFx       Rx   d 8 19 02 81 7C 22 7D A4 88
 15.247322 1  180217EFx       Rx   d 8 37 32 00 84 00 00 00 70
 15.330510 1  180117EFx       Rx   d 8 19 02 8F 7C 1B 7D 0B 88
 15.345792 1  180217EFx       Rx   d 8 37 32 00 84 00 00 00 80
 15.444520 1  180117EFx       Rx   d 8 1A 02 84 7C 50 7D 62 87
 15.445893 1  180217EFx       Rx   d 8 37 32 00 84 00 00 00 90
 15.538020 1  180117EFx       Rx   d 8 1A 02 86 7C 4D 7D BA 86
 15.545700 1  180217EFx       Rx   d 8 37 32 00 84 00 00 00 A0
 15.642210 1  180117EFx       Rx   d 8 1A 02 85 7C 2C 7D 19 86
 15.645667 1  180217EFx       Rx   d 8 37 32 00 84 00 00 00 B0
 15.742058 1  180117EFx       Rx   d 8 1A 02 84 7C 26 7D 77 85
 15.745711 1  180217EFx       Rx   d 8 37 32 00 84 00 00 00 C0
 15.829667 1  180117EFx       Rx   d 8 1A 02 7F 7C 14 7D E9 84
 15.845777 1  180217EFx       Rx   d 8 37 32 00 84 00 00 00 D0
 15.934622 1  180117EFx       Rx   d 8 1A 02 7D 7C 25 7D 4F 84
 15.945677 1  180217EFx       Rx   d 8 37 32 00 84 00 00 00 E0
 16.033929 1  180117EFx       Rx   d 8 1A 02 7B 7C 31 7D C4 83
 16.045757 1  180217EFx       Rx   d 8 37 32 00 84 00 00 00 F0
 16.141857 1  180117EFx       Rx   d 8 1A 02 79 7C 19 7D 44 83
 16.145585 1  180217EFx       Rx   d 8 37 32 00 84 00 00 00 00
 16.243970 1  180117EFx       Rx   d 8 1A 02 81 7C F2 7C CE 82
 16.246921 1  180217EFx       Rx   d 8 37 32 00 84 00 00 00 10
 16.331700 1  180117EFx       Rx   d 8 1A 02 7E 7C 22 7D 52 82
 16.345643 1  180217EFx       Rx   d 8 37 32 00 84 00 00 00 20
 16.444282 1  180117EFx       Rx   d 8 1A 02 7D 7C 18 7D E0 81
 16.445760 1  180217EFx       Rx   d 8 37 32 00 84 00 00 00 30
 16.537937 1  180117EFx       Rx   d 8 1A 02 82 7C 17 7D 6F 81
 16.545577 1  180217EFx       Rx   d 8 37 32 00 84 00 00 00 40
 16.642059 1  180117EFx       Rx   d 8 1A 02 7E 7C 0B 7D 05 81
 16.645526 1  180217EFx       Rx   d 8 37 32 00 84 00 00 00 50
 16.744411 1  180117EFx       Rx   d 8 1B 02 7E 7C 1B 7D 9A 80
 16.746413 1  180217EFx       Rx   d 8 37 32 00 84 00 00 00 60
 16.830242 1  180117EFx       Rx   d 8 1A 02 82 7C 23 7D 3B 80
 16.856289 1  180217EFx       Rx   d 8 37 32 00 84 00 00 00 70
 16.943866 1  180117EFx       Rx   d 8 1B 02 7C 7C 2E 7D DC 7F
 16.954477 1  180217EFx       Rx   d 8 37 32 00 84 00 00 00 80
 17.044321 1  180117EFx       Rx   d 8 1B 02 7C 7C 16 7D 80 7F
 17.045620 1  180217EFx       Rx   d 8 37 32 00 84 00 00 00 90
 17.142025 1  180117EFx       Rx   d 8 1A 02 7F 7C 14 7D 2C 7F
 17.145498 1  180217EFx       Rx   d 8 37 32 00 84 00 00 00 A0
 17.244094 1  180117EFx       Rx   d 8 1B 02 7E 7C F1 7C DC 7E
 17.246391 1  180217EFx       Rx   d 8 37 32 00 84 00 00 00 B0
 17.331550 1  180117EFx       Rx   d 8 1B 02 7C 7C 16 7D 8F 7E
 17.345495 1  180217EFx       Rx   d 8 37 32 00 84 00 00 00 C0
 17.444153 1  180117EFx       Rx   d 8 1B 02 7E 7C 12 7D 49 7E
 17.445558 1  180217EFx       Rx   d 8 37 32 00 84 00 00 00 D0
 17.533374 1  180117EFx       Rx   d 8 1B 02 82 7C 0D 7D 04 7E
 17.545465 1  180217EFx       Rx   d 8 37 32 00 84 00 00 00 E0
 17.641867 1  180117EFx       Rx   d 8 1B 02 7E 7C 08 7D CD 7D
 17.645588 1  180217EFx       Rx   d 8 37 32 00 84 00 00 00 F0
 17.743454 1  180117EFx       Rx   d 8 1B 02 7E 7C FB 7C A1 7D
 17.746027 1  180217EFx       Rx   d 8 37 32 00 84 00 00 00 00
 17.830038 1  180117EFx       Rx   d 8 1B 02 7E 7C 10 7D 87 7D
 17.845497 1  180217EFx       Rx   d 8 37 32 00 84 00 00 00 10
 17.944166 1  180117EFx       Rx   d 8 1B 02 7E 7C F6 7C 87 7D
 17.945516 1  180217EFx       Rx   d 8 37 32 00 84 00 00 00 20
 18.037347 1  180117EFx       Rx   d 8 1A 02 00 7D 00 7D 00 7D
 18.045470 1  180217EFx       Rx   d 8 37 37 00 84 00 00 00 30
 18.144068 1  180117EFx       Rx   d 8 1A 02 00 7D 00 7D 00 7D
 18.146062 1  180217EFx       Rx   d 8 37 37 00 84 00 00 00 40
 18.244174 1  180117EFx       Rx   d 8 1A 02 00 7D 00 7D 00 7D
 18.246167 1  180217EFx       Rx   d 8 37 37 00 84 00 00 00 50
 18.329374 1  180117EFx       Rx   d 8 1A 02 00 7D 00 7D 00 7D
 18.345711 1  180217EFx       Rx   d 8 37 37 00 84 00 00 00 60
 18.435753 1  180117EFx       Rx   d 8 1A 02 00 7D 00 7D 00 7D
 18.445865 1  180217EFx       Rx   d 8 37 37 00 84 00 00 00 70
 18.542627 1  180117EFx       Rx   d 8 1A 02 00 7D 00 7D 00 7D
 18.544166 1  180217EFx       Rx   d 8 37 37 00 84 00 00 00 80
 18.643638 1  180117EFx       Rx   d 8 1A 02 00 7D 00 7D 00 7D
 18.644470 1  180217EFx       Rx   d 8 37 37 00 84 00 00 00 90
 18.743821 1  180117EFx       Rx   d 8 1A 02 00 7D 00 7D 00 7D
 18.743821 1  180217EFx       Rx   d 8 37 37 00 84 00 00 00 A0
 18.829348 1  180117EFx       Rx   d 8 1A 02 00 7D 00 7D 00 7D
 18.845396 1  180217EFx       Rx   d 8 37 37 00 84 00 00 00 B0
 18.938571 1  180117EFx       Rx   d 8 1A 02 00 7D 00 7D 00 7D
 18.945314 1  180217EFx       Rx   d 8 37 37 00 84 00 00 00 C0
 19.038069 1  180117EFx       Rx   d 8 1A 02 00 7D 00 7D 00 7D
 19.045261 1  180217EFx       Rx   d 8 37 37 00 84 00 00 00 D0
 19.139215 1  180117EFx       Rx   d 8 1A 02 00 7D 00 7D 00 7D
 19.145413 1  180217EFx       Rx   d 8 37 37 00 84 00 00 00 E0
 19.243084 1  180117EFx       Rx   d 8 1A 02 00 7D 00 7D 00 7D
 19.245646 1  180217EFx       Rx   d 8 37 37 00 84 00 00 00 F0
 19.342256 1  180117EFx       Rx   d 8 1A 02 00 7D 00 7D 00 7D
 19.345325 1  180217EFx       Rx   d 8 37 37 00 84 00 00 00 00
 19.433172 1  180117EFx       Rx   d 8 1A 02 00 7D 00 7D 00 7D
 19.445931 1  180217EFx       Rx   d 8 37 37 00 84 00 00 00 10
 19.537585 1  180117EFx       Rx   d 8 1A 02 00 7D 00 7D 00 7D
 19.545278 1  180217EFx       Rx   d 8 37 37 00 84 00 00 00 20
 19.643198 1  180117EFx       Rx   d 8 1A 02 00 7D 00 7D 00 7D
 19.645079 1  180217EFx       Rx   d 8 37 37 00 84 00 00 00 30
 19.740297 1  180117EFx       Rx   d 8 1A 02 00 7D 00 7D 00 7D
 19.745317 1  180217EFx       Rx   d 8 37 37 00 84 00 00 00 40
